,7AH,2000
10,9A,1D
1,UAB,,,V,0.00564971751412429,0,0,-2048,2047,1,1,S
2,UBC,,,V,0.00564334085778781,0,0,-2048,2047,1,1,S
3,3U0,,,V,0.00567214974475326,0,0,-2048,2047,1,1,S
4,UX,,,V,0.00575373993095512,0,0,-2048,2047,1,1,S
5,IA,,,A,0.00436490615451768,0,0,-2048,2047,1,1,S
6,IB,,,A,0.00433651344319167,0,0,-2048,2047,1,1,S
7,IC,,,A,0.00433651344319167,0,0,-2048,2047,1,1,S
8,3I0,,,A,0.001085776330076,0,0,-2048,2047,1,1,S
9,3LI0,,,A,0.0043271311120727,0,0,-2048,2047,1,1,S
1,DI,,,1
0
1
1800,3744
10/03/2010,19:47:34.414000
10/03/2010,19:47:34.494000
ASCII
1
1,,-26592,10896,-784,-608,-528,-1392,-576,-912,-880,8233
2,,-26304,6896,-832,-576,-480,-1296,-640,-896,-864,8233
3,,-25088,2496,-784,-576,-496,-1232,-704,-896,-864,8233
4,,-23200,-1808,-832,-592,-496,-1184,-816,-928,-912,8233
5,,-20336,-6144,-816,-544,-496,-1024,-896,-880,-880,8233
6,,-16896,-10544,-832,-608,-512,-976,-992,-912,-896,8233
7,,-13184,-14640,-784,-576,-544,-880,-992,-896,-880,8233
8,,-8992,-18464,-816,-576,-608,-752,-1040,-912,-864,8233
9,,-4672,-21712,-848,-576,-688,-736,-1072,-912,-912,8233
10,,-288,-23920,-864,-592,-768,-624,-1072,-912,-880,8233
11,,4048,-25536,-880,-576,-864,-592,-1056,-928,-912,8233
12,,8512,-26688,-832,-608,-912,-480,-1024,-928,-864,8233
13,,12592,-26864,-896,-592,-1024,-432,-992,-928,-864,8233
14,,16448,-26592,-864,-592,-1120,-400,-944,-928,-896,8233
15,,19552,-25248,-848,-624,-1184,-416,-880,-912,-896,8233
16,,21792,-23184,-864,-640,-1296,-448,-832,-928,-896,8233
17,,23488,-20528,-864,-576,-1360,-384,-736,-944,-912,8233
18,,24352,-17088,-880,-592,-1424,-416,-640,-928,-896,8233
19,,24688,-13280,-848,-624,-1488,-480,-560,-928,-912,8233
20,,24416,-9184,-832,-608,-1504,-496,-448,-928,-864,8233
21,,23216,-4832,-832,-576,-1488,-576,-352,-896,-880,8233
22,,21248,-560,-832,-624,-1552,-672,-288,-928,-880,8233
23,,18496,3792,-864,-592,-1520,-752,-192,-880,-896,8233
24,,15136,8272,-816,-608,-1536,-848,-144,-928,-896,8233
25,,11296,12400,-784,-560,-1440,-912,-64,-880,-880,8233
26,,7152,16192,-832,-592,-1408,-992,-64,-880,-912,8233
27,,2768,19408,-848,-576,-1392,-1088,-16,-896,-896,8233
28,,-1680,21712,-800,-608,-1280,-1216,-48,-880,-896,8233
29,,-6112,23440,-800,-592,-1168,-1248,0,-880,-864,8233
30,,-10416,24400,-784,-560,-1088,-1328,-48,-832,-864,8233
31,,-14672,24672,-816,-576,-992,-1376,-96,-864,-864,8233
32,,-18416,24288,-848,-576,-896,-1408,-160,-864,-880,8233
33,,-21536,23040,-784,-592,-832,-1424,-176,-880,-880,8233
34,,-23840,20960,-816,-624,-736,-1440,-304,-896,-880,8233
35,,-25328,18192,-800,-576,-656,-1408,-384,-880,-880,8233
36,,-26288,14752,-816,-528,-576,-1360,-432,-864,-864,8233
37,,-26640,10944,-784,-592,-544,-1376,-544,-880,-896,8233
38,,-26272,6864,-816,-576,-512,-1296,-608,-864,-864,8233
39,,-25216,2544,-816,-576,-448,-1232,-720,-896,-880,8233
40,,-23072,-1792,-784,-592,-464,-1104,-800,-896,-880,8233
41,,-20416,-6128,-816,-576,-480,-1088,-896,-896,-880,8233
42,,-16992,-10560,-832,-592,-544,-976,-976,-896,-864,8233
43,,-13104,-14624,-832,-624,-560,-880,-1040,-896,-864,8233
44,,-9040,-18528,-832,-576,-592,-816,-1040,-896,-896,8233
45,,-4592,-21632,-800,-576,-640,-688,-1040,-896,-864,8233
46,,-320,-24016,-832,-608,-752,-656,-1072,-928,-896,8233
47,,4064,-25584,-864,-592,-848,-560,-1072,-960,-896,8233
48,,8528,-26656,-864,-592,-976,-496,-1024,-944,-896,8233
49,,12704,-26944,-816,-560,-992,-416,-1008,-896,-864,8233
50,,16384,-26448,-832,-608,-1088,-432,-944,-912,-896,8233
51,,19648,-25328,-832,-592,-1200,-400,-880,-896,-880,8233
52,,21824,-23168,-832,-576,-1264,-368,-784,-928,-848,8233
53,,23456,-20480,-832,-608,-1360,-416,-720,-960,-896,8233
54,,24464,-17136,-848,-592,-1424,-400,-608,-896,-896,8233
55,,24576,-13232,-800,-608,-1456,-464,-544,-912,-896,8233
56,,24448,-9184,-864,-592,-1504,-512,-464,-912,-928,8233
57,,23232,-4864,-848,-576,-1536,-592,-384,-944,-912,8233
58,,21264,-544,-832,-560,-1520,-656,-272,-944,-880,8233
59,,18544,3824,-832,-592,-1472,-736,-192,-880,-864,8233
60,,15072,8208,-816,-592,-1488,-848,-128,-880,-864,8233
61,,11264,12432,-848,-608,-1488,-912,-80,-896,-896,8233
62,,7136,16160,-800,-608,-1408,-992,-64,-912,-896,8233
63,,2784,19440,-832,-576,-1328,-1088,0,-848,-848,8233
64,,-1632,21792,-784,-560,-1248,-1168,-16,-832,-864,8233
65,,-6064,23376,-816,-560,-1168,-1248,-32,-864,-864,8233
66,,-10528,24432,-816,-592,-1088,-1344,-48,-928,-912,8233
67,,-14656,24688,-800,-576,-976,-1344,-96,-848,-880,8233
68,,-18384,24256,-800,-592,-880,-1392,-144,-864,-864,8233
69,,-21616,23088,-816,-592,-832,-1440,-224,-912,-896,8233
70,,-23760,20864,-816,-592,-752,-1440,-288,-896,-880,8233
71,,-25408,18160,-800,-608,-672,-1408,-400,-880,-880,8233
72,,-26336,14768,-848,-608,-608,-1408,-464,-880,-912,8233
73,,-26592,10944,-848,-592,-544,-1360,-576,-896,-880,8233
74,,-26352,6912,-800,-576,-480,-1280,-624,-864,-864,8233
75,,-25120,2496,-832,-608,-480,-1216,-704,-928,-880,8233
76,,-23152,-1792,-800,-560,-480,-1120,-784,-880,-848,8233
77,,-20384,-6160,-832,-592,-512,-1072,-896,-896,-864,8233
78,,-16944,-10528,-816,-560,-496,-960,-944,-880,-864,8233
79,,-13184,-14688,-848,-608,-544,-880,-1024,-896,-864,8233
80,,-8976,-18448,-816,-576,-576,-800,-1024,-912,-864,8233
81,,-4592,-21680,-816,-576,-640,-688,-1024,-896,-848,8233
82,,-288,-24000,-864,-560,-736,-624,-1040,-896,-864,8233
83,,4112,-25552,-832,-576,-848,-544,-1040,-896,-848,8233
84,,8528,-26720,-816,-592,-912,-480,-1024,-928,-864,8233
85,,12640,-26832,-832,-576,-1024,-432,-992,-864,-880,8233
86,,16464,-26560,-848,-592,-1088,-416,-928,-944,-864,8233
87,,19600,-25296,-864,-608,-1184,-416,-864,-896,-880,8233
88,,21792,-23152,-832,-560,-1248,-400,-768,-912,-880,8233
89,,23456,-20496,-816,-576,-1344,-400,-704,-912,-864,8233
90,,24352,-17072,-848,-592,-1408,-432,-608,-928,-864,8233
91,,24672,-13248,-864,-576,-1456,-448,-528,-944,-880,8233
92,,24480,-9216,-864,-576,-1520,-512,-464,-912,-880,8233
93,,23248,-4864,-832,-592,-1520,-592,-368,-896,-880,8233
94,,21280,-512,-832,-576,-1488,-640,-256,-896,-880,8233
95,,18528,3776,-848,-592,-1488,-752,-192,-896,-864,8233
96,,15088,8256,-848,-560,-1488,-816,-128,-896,-880,8233
97,,11296,12416,-848,-592,-1456,-960,-64,-896,-912,8233
98,,7088,16128,-832,-608,-1408,-1024,-48,-912,-896,8233
99,,2832,19456,-816,-592,-1312,-1104,-48,-880,-896,8233
100,,-1696,21712,-800,-592,-1248,-1216,-16,-864,-880,8233
101,,-6064,23392,-800,-608,-1200,-1232,-48,-896,-896,8233
102,,-10512,24448,-848,-608,-1088,-1360,-80,-912,-880,8233
103,,-14624,24672,-800,-576,-992,-1376,-64,-896,-864,8233
104,,-18464,24336,-848,-592,-896,-1408,-128,-880,-896,8233
105,,-21536,22976,-800,-576,-848,-1440,-208,-880,-912,8233
106,,-23808,20944,-832,-608,-736,-1456,-288,-864,-896,8233
107,,-25440,18224,-752,-560,-656,-1392,-352,-848,-864,8233
108,,-26368,14752,-832,-624,-576,-1392,-464,-880,-896,8233
109,,-26640,10928,-848,-608,-560,-1408,-560,-896,-912,8233
110,,-26240,6896,-816,-592,-480,-1312,-624,-896,-880,8233
111,,-25232,2528,-832,-608,-496,-1232,-736,-896,-864,8233
112,,-23120,-1792,-832,-576,-480,-1152,-816,-928,-864,8233
113,,-20352,-6160,-832,-592,-480,-1056,-880,-896,-896,8233
114,,-16976,-10592,-848,-608,-512,-976,-976,-880,-896,8233
115,,-13120,-14672,-816,-624,-576,-912,-1040,-896,-912,8233
116,,-9008,-18544,-832,-608,-592,-784,-1056,-928,-896,8233
117,,-4624,-21648,-832,-576,-672,-720,-1072,-896,-880,8233
118,,-288,-24000,-848,-576,-768,-640,-1072,-928,-896,8233
119,,4096,-25632,-816,-576,-816,-544,-1040,-896,-864,8233
120,,8496,-26640,-832,-576,-912,-464,-1024,-928,-880,8233
121,,12640,-26912,-832,-576,-1008,-432,-976,-944,-880,8233
122,,16448,-26528,-832,-608,-1104,-400,-960,-896,-864,8233
123,,19600,-25296,-832,-592,-1184,-400,-880,-928,-896,8233
124,,21840,-23248,-848,-592,-1264,-400,-816,-928,-880,8233
125,,23424,-20416,-848,-592,-1328,-384,-704,-896,-864,8233
126,,24432,-17120,-848,-560,-1408,-400,-592,-912,-864,8233
127,,24688,-13280,-864,-560,-1488,-448,-528,-896,-880,8233
128,,24416,-9216,-848,-592,-1488,-512,-416,-912,-880,8233
129,,23296,-4912,-896,-608,-1536,-592,-384,-912,-928,8233
130,,21152,-544,-848,-592,-1504,-672,-288,-912,-912,8233
131,,18544,3760,-832,-608,-1552,-752,-224,-912,-880,8233
132,,15104,8256,-832,-576,-1456,-800,-128,-896,-864,8233
133,,11296,12384,-848,-608,-1488,-928,-96,-880,-912,8233
134,,7184,16160,-832,-592,-1392,-1008,-48,-896,-880,8233
135,,2720,19360,-848,-608,-1360,-1120,-48,-928,-896,8233
136,,-1664,21776,-848,-608,-1248,-1184,-48,-912,-912,8233
137,,-6080,23456,-832,-576,-1168,-1248,-32,-880,-880,8233
138,,-10512,24416,-864,-592,-1120,-1328,-64,-864,-896,8233
139,,-14656,24720,-800,-608,-992,-1360,-96,-864,-896,8233
140,,-18448,24288,-800,-592,-912,-1408,-112,-864,-880,8233
141,,-21616,23072,-784,-576,-832,-1408,-208,-880,-848,8233
142,,-27344,24304,-784,-608,-656,-2816,-192,-19008,-896,8233
143,,-31776,27936,-896,-592,-576,-1280,-272,3248,-880,8233
144,,-27008,15760,-832,-576,-528,-1328,-368,2176,-880,8233
145,,-27584,11504,-848,-608,-720,-640,-720,5456,-880,8233
146,,-22912,3856,-848,-608,-448,-2288,-624,-14752,-912,8233
147,,-23168,384,-768,-592,-480,-1168,-720,384,-864,8233
148,,-29904,4608,-784,-576,-448,-1184,-736,336,-880,8233
149,,-18512,-7664,-816,-576,-512,-976,-912,-1440,-880,8233
150,,-17040,-10464,-784,-560,-512,-912,-928,-304,-880,8233
151,,-12912,-15056,-800,-608,-544,-896,-992,-720,-896,8233
152,,-9344,-17936,-832,-576,-624,-784,-1024,-928,-912,8233
153,,-5056,-21696,-832,-592,-688,-720,-1056,-960,-896,8233
154,,-1216,-22816,-816,-592,-736,-624,-1072,-976,-880,8233
155,,5056,-26640,-832,-608,-880,-576,-1072,-1024,-896,8233
156,,9056,-27904,-832,-608,-1008,-416,-1120,-1600,-896,8233
157,,19648,-31808,-816,-576,-1056,-432,-1088,-3136,-880,8233
158,,21600,-31488,-864,-592,-1120,-432,-1024,-3040,-864,8233
159,,26608,-31424,-864,-592,-1136,-496,-928,-2672,-896,8233
160,,32256,-31792,-864,-576,-1312,-400,-864,-3776,-880,8233
161,,25712,-24096,-848,-640,-1344,-528,-800,-3120,-928,8233
162,,22944,-15488,-832,-592,-1248,-960,-496,-4640,-880,8233
163,,31040,-20400,-848,-608,-1536,-496,-624,-3936,-880,8233
164,,23168,-7920,-864,-576,-1456,-688,-480,-4240,-880,8233
165,,17264,1280,-816,-592,-1392,-944,-304,-4480,-896,8233
166,,23808,-3472,-816,-608,-1376,-976,-256,-4032,-864,8233
167,,18112,4544,-896,-560,-1520,-784,-240,-1872,-896,8233
168,,14336,9104,-864,-560,-1472,-912,-144,-1184,-896,8233
169,,12368,11600,-832,-576,-1456,-832,-96,-928,-880,8233
170,,6688,17008,-848,-560,-1376,-1024,-48,-896,-864,8233
171,,3552,18624,-848,-592,-1344,-1056,-48,-864,-896,8233
172,,-2544,22656,-816,-576,-1248,-1136,-48,-864,-848,8233
173,,2688,15280,-784,-576,-1232,-1520,-48,-6512,-864,8233
174,,-17552,31216,-816,-592,-1152,-960,-128,2288,-864,8233
175,,-7008,17200,-928,-592,-832,-1600,64,1472,-896,8233
176,,-16192,22736,-784,-592,-928,-1312,-128,912,-880,8233
177,,-21184,22464,-800,-592,-864,-1376,-176,-288,-848,8233
178,,-30800,28512,-832,-608,-640,-1504,-112,1968,-896,8233
179,,-13936,6848,-896,-576,-720,-928,-336,5776,-864,8233
180,,-21776,11056,-976,-592,-624,-1312,-448,-528,-912,8233
181,,-31744,18576,-784,-608,-528,-1232,-512,2736,-880,8233
182,,-28352,9072,-768,-608,-496,-1296,-608,688,-896,8233
183,,-24016,1520,-800,-576,-560,-1136,-736,-400,-880,8233
184,,-24944,-160,-800,-592,-496,-1168,-768,-768,-880,8233
185,,-19104,-7200,-800,-544,-496,-1040,-832,-896,-880,8233
186,,-17856,-10352,-784,-592,-512,-992,-944,-928,-880,8233
187,,-14432,-13600,-832,-592,-528,-896,-1024,-992,-896,8233
188,,-8704,-18496,-832,-576,-592,-784,-1008,-992,-880,8233
189,,-4880,-22000,-848,-608,-672,-736,-1056,-960,-880,8233
190,,-784,-23232,-848,-560,-752,-656,-1056,-944,-912,8233
191,,4736,-26464,-864,-560,-832,-560,-1040,-992,-896,8233
192,,7872,-26256,-832,-576,-912,-480,-1024,-960,-896,8233
193,,13216,-27344,-848,-576,-1024,-448,-1008,-960,-880,8233
194,,19808,-30288,-832,-576,-960,-1056,-832,-7616,-880,8233
195,,30016,-31824,-832,-592,-1312,-352,-1040,-4176,-880,8233
196,,26032,-28176,-912,-592,-1280,-480,-864,-3744,-896,8233
197,,25600,-23344,-864,-544,-1440,-304,-832,-2704,-864,8233
198,,27600,-20240,-912,-560,-1472,1472,-672,27488,-880,8233
199,,26224,-15424,-896,-608,-1568,-464,-640,-3424,-912,8233
200,,24048,-8768,-864,-640,-1488,-576,-512,-1840,-912,8233
201,,27600,-8960,-832,-608,-1520,-576,-416,-1184,-864,8233
202,,20512,-192,-864,-592,-1504,-688,-288,-928,-896,8233
203,,19792,3008,-848,-592,-1504,-784,-240,-880,-880,8233
204,,14736,8224,-864,-576,-1536,-816,-160,-880,-912,8233
205,,11744,12016,-848,-624,-1424,-960,-96,-832,-896,8233
206,,7744,16096,-880,-640,-1440,-1024,-96,-832,-928,8233
207,,2624,19376,-848,-640,-1376,-1152,-64,-864,-928,8233
208,,-1744,22304,-832,-608,-1296,-1152,-80,-832,-912,8233
209,,-5968,23504,-816,-592,-1200,-1280,-32,-816,-896,8233
210,,-10368,24336,-848,-592,-1120,-1328,-64,-864,-896,8233
211,,-15184,25520,-784,-576,-976,-1344,-96,-848,-880,8233
212,,-18144,24176,-816,-608,-944,-1424,-160,-832,-912,8233
213,,-21920,23536,-816,-592,-816,-1424,-240,-832,-880,8233
214,,-23328,20656,-848,-624,-752,-1472,-304,-848,-928,8233
215,,-25904,18480,-816,-592,-688,-1440,-384,-832,-912,8233
216,,-26256,15152,-816,-608,-592,-1408,-464,-864,-896,8233
217,,-26560,10832,-816,-576,-544,-1344,-560,-864,-880,8233
218,,-26976,7264,-832,-576,-528,-1328,-640,-880,-912,8233
219,,-25184,2816,-800,-608,-464,-1248,-720,-848,-880,8233
220,,-23488,-1808,-848,-608,-480,-1184,-800,-832,-912,8233
221,,-20640,-5888,-816,-592,-512,-1072,-896,-864,-880,8233
222,,-17312,-10656,-848,-608,-560,-992,-976,-896,-896,8233
223,,-13296,-14688,-832,-576,-544,-896,-1008,-880,-864,8233
224,,-9040,-18560,-864,-624,-608,-832,-1088,-880,-896,8233
225,,-4704,-21920,-864,-576,-704,-736,-1072,-912,-912,8233
226,,-512,-23952,-848,-624,-768,-672,-1120,-912,-928,8233
227,,4192,-25840,-848,-608,-832,-576,-1056,-912,-880,8233
228,,8400,-26768,-880,-608,-928,-496,-1088,-912,-896,8233
229,,12608,-26976,-848,-608,-1024,-432,-1008,-912,-912,8233
230,,16416,-26688,-864,-608,-1072,-416,-976,-912,-880,8233
231,,19568,-25456,-896,-624,-1184,-400,-928,-928,-928,8233
232,,21888,-23312,-832,-592,-1248,-400,-816,-896,-864,8233
233,,23328,-20624,-848,-608,-1376,-416,-720,-944,-912,8233
234,,24496,-17136,-848,-608,-1456,-416,-640,-896,-928,8233
235,,24768,-13488,-832,-608,-1504,-448,-560,-928,-896,8233
236,,24384,-9344,-864,-608,-1520,-528,-496,-896,-896,8233
237,,23408,-4944,-848,-592,-1504,-576,-384,-896,-912,8233
238,,21296,-752,-864,-640,-1552,-672,-320,-912,-912,8233
239,,18592,3824,-784,-560,-1488,-736,-208,-896,-880,8233
240,,15104,8112,-816,-592,-1504,-832,-128,-880,-880,8233
241,,11328,12352,-848,-576,-1456,-912,-80,-912,-880,8233
242,,7248,16160,-832,-592,-1424,-1008,-32,-880,-880,8233
243,,2736,19344,-864,-576,-1376,-1120,-32,-912,-896,8233
244,,-1648,21808,-816,-592,-1248,-1200,-48,-896,-896,8233
245,,-5952,23328,-832,-576,-1184,-1232,-16,-864,-880,8233
246,,-10368,24304,-848,-592,-1056,-1328,-64,-864,-896,8233
247,,-14544,24640,-784,-608,-992,-1392,-96,-880,-880,8233
248,,-18304,24208,-816,-576,-880,-1376,-128,-864,-864,8233
249,,-21520,23120,-784,-560,-816,-1408,-192,-880,-880,8233
250,,-23680,20928,-800,-592,-752,-1456,-304,-896,-880,8233
251,,-25408,18320,-800,-560,-640,-1408,-368,-864,-880,8233
252,,-26272,14864,-800,-592,-592,-1408,-480,-880,-912,8233
253,,-26592,11088,-800,-592,-544,-1360,-560,-880,-864,8233
254,,-26448,7040,-864,-608,-528,-1312,-640,-880,-912,8233
255,,-25152,2704,-832,-592,-480,-1248,-736,-864,-896,8233
256,,-23232,-1696,-816,-592,-496,-1152,-816,-880,-880,8233
257,,-20512,-6016,-832,-608,-496,-1072,-896,-896,-896,8233
258,,-17072,-10480,-864,-592,-512,-976,-960,-896,-880,8233
259,,-13264,-14656,-816,-608,-576,-896,-1040,-880,-896,8233
260,,-9024,-18464,-832,-576,-576,-800,-1024,-896,-880,8233
261,,-4736,-21776,-816,-592,-640,-720,-1056,-880,-880,8233
262,,-352,-24080,-832,-608,-768,-640,-1072,-944,-912,8233
263,,4016,-25616,-832,-592,-848,-560,-1056,-912,-880,8233
264,,8384,-26640,-816,-608,-928,-480,-1040,-944,-896,8233
265,,12528,-26848,-816,-608,-1024,-448,-992,-992,-896,8233
266,,15968,-26576,-848,-608,-1120,-400,-944,-960,-896,8233
267,,19136,-25280,-832,-560,-1200,-416,-848,-832,-864,8233
268,,21200,-23168,-864,-592,-1296,-384,-816,-960,-912,8233
269,,22800,-20416,-832,-576,-1376,-384,-704,-976,-896,8233
270,,15536,-8912,-816,-592,-1360,-304,-576,3072,-896,8233
271,,25440,-14800,-848,-576,-1552,-304,-592,-608,-912,8233
272,,23664,-9648,-848,-592,-1584,-464,-544,-3840,-880,8233
273,,22032,-3936,-832,-592,-1520,-576,-384,-784,-896,8233
274,,23216,-3040,-848,-592,-1552,-624,-320,-1200,-896,8233
275,,19440,2208,-864,-560,-1504,-832,-224,-3648,-880,8233
276,,14928,7984,-880,-560,-1520,-864,-160,-1728,-912,8233
277,,12944,10352,-816,-576,-1456,-944,-64,-1072,-880,8233
278,,8352,14688,-864,-592,-1408,-1024,-48,-912,-896,8233
279,,3936,18720,-816,-576,-1296,-1088,0,-832,-832,8233
280,,192,20208,-800,-576,-1280,-1152,0,-832,-880,8233
281,,-5312,23328,-832,-560,-1184,-1248,-16,-800,-896,8233
282,,-8496,23360,-784,-560,-1056,-1312,0,-816,-848,8233
283,,-14624,25248,-784,-560,-992,-1392,-48,-816,-880,8233
284,,-11136,18928,-880,-576,-1024,-1648,-208,-8496,-880,8233
285,,-22656,25504,-800,-560,-768,-1536,-128,-1280,-880,8233
286,,-22016,20768,-800,-576,-704,-1408,-192,1360,-880,8233
287,,-23984,18208,-848,-592,-704,-1488,-336,-1680,-880,8233
288,,-27072,16512,-816,-576,-608,-1408,-384,-112,-880,8233
289,,-26672,12432,-832,-592,-544,-1376,-496,48,-880,8233
290,,-26016,7008,-768,-560,-496,-1312,-512,-80,-896,8233
291,,-26384,4512,-800,-576,-528,-1280,-624,-704,-880,8233
292,,-25184,1040,-784,-608,-448,-1120,-736,944,-864,8233
293,,-22016,-4416,-768,-608,-496,-1056,-800,224,-880,8233
294,,-19616,-7632,-784,-592,-544,-944,-896,-128,-864,8233
295,,-14464,-13440,-816,-576,-560,-864,-944,-256,-864,8233
296,,-10976,-16944,-832,-576,-640,-768,-1008,-832,-864,8233
297,,-5536,-20992,-784,-576,-656,-736,-992,-960,-864,8233
298,,-1728,-23680,-832,-592,-768,-624,-1056,-976,-896,8233
299,,2896,-25120,-832,-592,-816,-624,-1040,-1024,-896,8233
300,,8032,-27232,-816,-576,-880,-528,-1008,-976,-880,8233
301,,11216,-26816,-832,-560,-960,-480,-992,-1008,-896,8233
302,,16432,-27520,-864,-592,-1056,-448,-944,-976,-896,8233
303,,18192,-25520,-784,-608,-1104,-304,-848,1984,-864,8233
304,,23696,-26192,-784,-576,-1280,-256,-912,-2080,-880,8233
305,,19952,-19056,-832,-576,-1312,-416,-768,-1632,-896,8233
306,,24528,-18544,-848,-576,-1360,-352,-672,-752,-880,8233
307,,25536,-15296,-864,-576,-1456,-464,-656,-2240,-880,8233
308,,24336,-10064,-864,-560,-1456,-464,-528,-1904,-880,8233
309,,24128,-6048,-864,-576,-1488,-560,-464,-1360,-928,8233
310,,23712,-3552,-816,-560,-1472,-624,-336,-1904,-864,8233
311,,20496,1600,-816,-608,-1488,-768,-304,-2704,-864,8233
312,,17600,6128,-816,-544,-1424,-816,-160,-1424,-848,8233
313,,13360,10176,-832,-576,-1440,-896,-128,-1632,-880,8233
314,,8576,15440,-848,-576,-1392,-1008,-96,-1040,-912,8233
315,,5056,17712,-832,-576,-1328,-1056,-80,-896,-880,8233
316,,-1216,22016,-832,-624,-1264,-1136,-96,-832,-896,8233
317,,-4192,22880,-768,-576,-1184,-1184,-48,-816,-864,8233
318,,-10192,24928,-864,-560,-1120,-1312,-48,-816,-880,8233
319,,-13568,25040,-800,-560,-1008,-1328,-64,-816,-880,8233
320,,-17664,24736,-816,-608,-992,-1392,-160,-864,-896,8233
321,,-21776,24288,-816,-592,-880,-1392,-224,-832,-880,8233
322,,-23008,21616,-832,-624,-800,-1440,-304,-832,-896,8233
323,,-25280,18944,-800,-592,-688,-1440,-336,-832,-896,8233
324,,-26288,15712,-864,-624,-640,-1440,-416,-864,-896,8233
325,,-26512,11728,-784,-576,-576,-1392,-512,-848,-864,8233
326,,-26768,7920,-800,-560,-512,-1312,-592,-800,-912,8233
327,,-25424,3472,-848,-592,-512,-1280,-704,-848,-880,8233
328,,-23712,-1072,-816,-576,-448,-1152,-752,-832,-864,8233
