,1213 5#¡¡µªÍ¸µç»ú,2000
8,7A,1D
1,UAB,,,V,0.0057372346528973,0,0,-2048,2047,1,1,S
2,UBC,,,V,0.00570125427594071,0,0,-2048,2047,1,1,S
3,3U0,,,V,0.005720823798627,0,0,-2048,2047,1,1,S
4,IA,,,A,0.0043271311120727,0,0,-2048,2047,1,1,S
5,IB,,,A,0.0043271311120727,0,0,-2048,2047,1,1,S
6,IC,,,A,0.00436490615451768,0,0,-2048,2047,1,1,S
7,3I0,,,A,0.00107296137339056,0,0,-2048,2047,1,1,S
1,DI,,,1
0
1
1800,3744
17/06/2013,00:29:6.432000
17/06/2013,00:29:6.512000
ASCII
1
1,,13232,5616,-192,-496,-128,-304,-480,8199
2,,10864,7968,-160,-544,-80,-320,-464,8199
3,,8320,10400,-160,-576,-80,-272,-464,8199
4,,4720,13456,-192,-608,-64,-224,-432,8199
5,,2560,14864,-176,-624,-80,-176,-448,8199
6,,-1312,17840,-256,-640,-80,-128,-432,8199
7,,-3376,17984,-336,-672,-144,-128,-448,8199
8,,-6736,18976,-432,-640,-160,-80,-432,8199
9,,-9440,18192,-432,-640,-224,-64,-464,8199
10,,-12128,18112,-480,-624,-272,16,-448,8199
11,,-14208,17120,-544,-592,-320,16,-480,8199
12,,-15840,16016,-672,-576,-368,64,-464,8199
13,,-17776,14176,-688,-512,-416,80,-432,8199
14,,-18240,12416,-432,-512,-496,48,-496,8199
15,,-18624,9184,64,-448,-560,80,-480,8199
16,,-18432,6032,432,-384,-592,64,-448,8199
17,,-18128,2976,320,-400,-640,32,-480,8199
18,,-16176,160,-368,-336,-672,64,-512,8199
19,,-12848,-5616,-992,-240,-704,48,-464,8199
20,,-11936,-8960,-256,-192,-800,64,-496,8199
21,,-8704,-10464,256,-144,-800,80,-448,8199
22,,-6432,-12240,192,-112,-832,48,-464,8199
23,,-2816,-13536,-352,-80,-864,-32,-464,8199
24,,256,-15744,-432,16,-832,-80,-480,8199
25,,2992,-17136,-512,32,-816,-192,-480,8199
26,,5008,-18208,160,64,-752,-224,-496,8199
27,,8704,-18560,528,80,-720,-272,-464,8199
28,,11248,-18272,352,64,-704,-304,-464,8199
29,,12816,-17184,368,112,-608,-336,-416,8199
30,,15664,-14608,288,80,-560,-432,-464,8199
31,,16752,-13472,-224,96,-496,-496,-464,8199
32,,17632,-11312,-464,64,-432,-576,-464,8199
33,,17696,-8448,-560,32,-384,-576,-464,8199
34,,17312,-5984,-608,48,-304,-640,-464,8199
35,,16640,-3552,-480,-48,-240,-640,-464,8199
36,,15248,-688,-352,-64,-208,-592,-448,8199
37,,13536,2208,-320,-144,-144,-592,-464,8199
38,,11584,5024,-320,-192,-160,-544,-448,8199
39,,8912,8160,-288,-288,-144,-528,-464,8199
40,,6480,10416,-256,-336,-80,-448,-448,8199
41,,3840,12496,-272,-384,-112,-384,-448,8199
42,,-752,15968,-336,-432,-128,-352,-464,8199
43,,-3760,17104,-464,-480,-80,-288,-432,8199
44,,-6208,17728,-544,-512,-96,-208,-464,8199
45,,-9104,18064,-848,-576,-128,-208,-480,8199
46,,-11152,17872,-1248,-576,-160,-144,-464,8199
47,,-13024,16736,-1344,-592,-192,-112,-464,8199
48,,-14528,15648,-1232,-576,-256,-48,-480,8199
49,,-15792,14192,-1328,-544,-336,-16,-464,8199
50,,-16800,12016,-1360,-496,-400,16,-480,8199
51,,-17152,9936,-1392,-464,-448,48,-432,8199
52,,-17104,6912,-1376,-384,-512,48,-464,8199
53,,-16704,4320,-1328,-352,-592,48,-480,8199
54,,-15584,1216,-1328,-304,-640,0,-512,8199
55,,-13920,-3136,-1072,-224,-688,0,-480,8199
56,,-12000,-5696,-800,-128,-736,16,-448,8199
57,,-9600,-8336,-464,-80,-784,0,-496,8199
58,,-7072,-10512,-400,-16,-816,-48,-432,8199
59,,-4496,-12736,-256,64,-800,-96,-416,8199
60,,-1792,-14000,-176,112,-816,-128,-416,8199
61,,992,-15728,-64,144,-800,-224,-496,8199
62,,3616,-16416,160,144,-784,-272,-464,8199
63,,7424,-16720,224,224,-736,-352,-432,8199
64,,9184,-16704,176,208,-688,-384,-448,8199
65,,12112,-16224,112,224,-624,-528,-480,8199
66,,13504,-15104,48,240,-608,-624,-528,8199
67,,15760,-13680,-96,240,-544,-640,-480,8199
68,,16128,-11808,-288,208,-464,-720,-480,8199
69,,16576,-9568,-304,240,-384,-768,-448,8199
70,,16352,-7056,-448,192,-352,-800,-480,8199
71,,16112,-4560,-416,176,-272,-816,-480,8199
72,,15072,-1840,-464,80,-192,-832,-448,8199
73,,13648,1216,-448,48,-128,-816,-480,8199
74,,11744,4336,-288,-16,-112,-848,-480,8199
75,,9216,7232,-32,-80,0,-800,-464,8199
76,,6512,9920,-32,-160,0,-800,-464,8199
77,,3728,12176,-80,-224,64,-736,-448,8199
78,,1008,13696,-224,-288,80,-720,-432,8199
79,,-1904,15312,-384,-368,144,-624,-448,8199
80,,-4656,16176,-624,-448,128,-528,-448,8199
81,,-6992,16672,-864,-480,48,-496,-480,8199
82,,-9776,16688,-864,-528,80,-416,-448,8199
83,,-12032,16256,-896,-528,32,-368,-480,8199
84,,-14048,15296,-896,-592,-32,-288,-480,8199
85,,-15776,14048,-832,-608,-80,-208,-448,8199
86,,-17088,12224,-736,-624,-112,-160,-480,8199
87,,-17696,10192,-624,-608,-144,-80,-464,8199
88,,-17872,7888,-464,-656,-208,-64,-464,8199
89,,-17200,5264,-304,-624,-304,16,-480,8199
90,,-14320,1072,-336,-560,-384,32,-464,8199
91,,-14080,-1520,-384,-496,-480,48,-496,8199
92,,-11808,-4576,-480,-432,-576,64,-464,8199
93,,-10176,-6944,-480,-352,-592,64,-448,8199
94,,-7536,-9440,-496,-256,-672,48,-480,8199
95,,-5056,-11712,-528,-224,-736,16,-464,8199
96,,-2128,-13712,-544,-112,-800,0,-496,8199
97,,1696,-15888,-416,-16,-832,-80,-464,8199
98,,3984,-16288,-192,64,-848,-96,-464,8199
99,,6816,-17056,-80,112,-848,-208,-480,8199
100,,9216,-17040,-80,256,-880,-272,-480,8199
101,,11376,-16672,-48,272,-848,-352,-416,8199
102,,12912,-15536,-48,320,-832,-432,-464,8199
103,,14688,-14320,-80,368,-752,-512,-448,8199
104,,16000,-12480,-208,368,-720,-592,-480,8199
105,,16256,-10208,-336,400,-640,-672,-448,8199
106,,16144,-7760,-480,400,-576,-752,-496,8199
107,,15520,-4928,-400,368,-432,-800,-448,8199
108,,14944,-2272,-384,336,-384,-864,-448,8199
109,,13280,1024,-368,256,-272,-896,-464,8199
110,,11840,3104,-352,208,-208,-928,-480,8199
111,,9680,5968,-320,144,-144,-944,-464,8199
112,,7360,8352,-320,64,-48,-928,-448,8199
113,,4672,10672,-320,-48,48,-864,-480,8199
114,,2144,12368,-288,-144,48,-832,-448,8199
115,,-1856,15024,-400,-240,128,-784,-480,8199
116,,-12192,23712,-2560,-384,304,-816,-432,8199
117,,-11248,21120,-5328,-592,512,-800,-448,8199
118,,-15584,23072,-6992,-752,688,-800,-432,8199
119,,-16608,21888,-8544,-912,880,-864,-448,8199
120,,-17888,20560,-9296,-992,992,-800,-416,8199
121,,-18688,18336,-9664,-1120,1040,-784,-464,8199
122,,-18480,15168,-9648,-1232,1040,-736,-448,8199
123,,-17952,12368,-9392,-1216,1040,-672,-448,8199
124,,-18800,7136,-9184,-1232,960,-608,-432,8199
125,,-20768,-16,-9024,-1360,816,-336,-464,8199
126,,-17088,-2064,-8848,-1504,688,-144,-464,8199
127,,-16160,-6816,-8704,-1552,528,80,-480,8199
128,,-12016,-10720,-8464,-1568,336,336,-480,8199
129,,-9312,-13760,-8304,-1552,112,544,-480,8199
130,,-3664,-17904,-8112,-1488,-96,720,-512,8199
131,,48,-19776,-7952,-1344,-400,848,-448,8199
132,,3440,-21120,-7776,-1216,-656,944,-480,8199
133,,7488,-22032,-7616,-1024,-928,1024,-496,8199
134,,10112,-21968,-7408,-768,-1120,1040,-464,8199
135,,13344,-21872,-7248,-576,-1312,1008,-448,8199
136,,16112,-21136,-7120,-336,-1472,928,-480,8199
137,,18416,-19744,-6880,-112,-1632,816,-480,8199
138,,21040,-17872,-6704,176,-1744,688,-464,8199
139,,22000,-15040,-6432,432,-1824,512,-464,8199
140,,22544,-11952,-6160,656,-1872,320,-480,8199
141,,22208,-8304,-5904,864,-1840,96,-464,8199
142,,20640,-4208,-5872,1024,-1760,-160,-448,8199
143,,19152,-400,-5808,1184,-1680,-416,-480,8199
144,,16848,3504,-5648,1264,-1520,-656,-432,8199
145,,14144,7280,-5456,1344,-1296,-896,-464,8199
146,,11456,10640,-5216,1360,-1088,-1152,-480,8199
147,,7936,13920,-4944,1344,-864,-1344,-448,8199
148,,3456,16752,-4224,1296,-624,-1520,-480,8199
149,,-2688,19136,-2496,1200,-384,-1680,-432,8199
150,,-7920,21376,-2128,1024,-128,-1792,-448,8199
151,,-11392,22432,-2368,848,144,-1888,-416,8199
152,,-13824,22816,-2704,624,400,-1936,-464,8199
153,,-16288,22576,-3312,400,624,-1872,-432,8199
154,,-17488,21360,-3760,144,816,-1824,-448,8199
155,,-18688,19664,-4144,-128,912,-1744,-448,8199
156,,-19856,17296,-4128,-432,1040,-1584,-416,8199
157,,-21136,14176,-3264,-656,1152,-1408,-448,8199
158,,-20688,9536,-1712,-896,1184,-1184,-464,8199
159,,-17280,2560,1024,-1104,1152,-912,-432,8199
160,,-16112,-1696,1440,-1328,1104,-688,-448,8199
161,,-14880,-5216,1376,-1504,976,-416,-448,8199
162,,-13184,-8448,1120,-1616,848,-144,-448,8199
163,,-11264,-11424,704,-1680,672,128,-480,8199
164,,-9232,-13728,224,-1712,432,368,-496,8199
165,,-7104,-15664,-288,-1664,192,640,-480,8199
166,,-4736,-17056,-896,-1600,-96,784,-464,8199
167,,-2464,-17904,-1200,-1504,-384,960,-480,8199
168,,1264,-19360,-704,-1360,-672,1088,-512,8199
169,,6320,-20256,976,-1120,-928,1152,-512,8199
170,,10432,-17680,3728,-944,-1184,1184,-480,8199
171,,14240,-17136,4368,-672,-1392,1136,-528,8199
172,,17264,-16576,4368,-400,-1616,1072,-512,8199
173,,19392,-15520,4080,-112,-1792,928,-528,8199
174,,20944,-14192,3776,176,-1904,848,-528,8199
175,,21760,-12512,3344,432,-1968,608,-496,8199
176,,21936,-10656,2800,688,-2032,432,-496,8199
177,,21808,-8544,2144,928,-2000,192,-464,8199
178,,21088,-6096,1408,1120,-1952,-112,-480,8199
179,,19744,-2784,1184,1248,-1808,-368,-464,8199
180,,17648,2528,2368,1376,-1680,-640,-480,8199
181,,14848,6928,2800,1456,-1488,-912,-464,8199
182,,11440,10800,2944,1504,-1280,-1200,-480,8199
183,,7456,14256,3088,1520,-1024,-1376,-448,8199
184,,3136,17328,3360,1440,-704,-1600,-448,8199
185,,-1248,19568,3632,1312,-448,-1776,-464,8199
186,,-5072,21248,3696,1152,-160,-1904,-464,8199
187,,-8480,22288,3344,960,128,-2000,-432,8199
188,,-11264,22656,2896,736,368,-2016,-448,8199
189,,-14000,22400,2544,512,608,-2016,-432,8199
190,,-17104,21664,2528,240,816,-1968,-448,8199
191,,-19616,20128,2608,-32,1024,-1856,-432,8199
192,,-21664,17920,2688,-352,1136,-1696,-432,8199
193,,-22768,15200,2752,-592,1216,-1504,-400,8199
194,,-23152,11888,2688,-896,1264,-1296,-432,8199
195,,-22752,8240,2656,-1136,1264,-1024,-464,8199
196,,-21840,4256,2608,-1376,1168,-752,-448,8199
197,,-20128,304,2608,-1488,1120,-464,-416,8199
198,,-18048,-3648,2544,-1632,928,-192,-432,8199
199,,-15424,-7392,2512,-1696,768,112,-480,8199
200,,-12112,-11152,2512,-1776,528,368,-464,8199
201,,-8624,-14464,2416,-1760,256,592,-480,8199
202,,-4752,-17456,2416,-1712,0,816,-448,8199
203,,-768,-19888,2320,-1616,-336,976,-480,8199
204,,3200,-21616,2368,-1440,-560,1120,-480,8199
205,,7136,-22544,2320,-1232,-880,1216,-480,8199
206,,10704,-22864,2256,-1008,-1152,1264,-512,8199
207,,13760,-22544,2240,-736,-1408,1216,-480,8199
208,,16800,-21776,2208,-464,-1632,1152,-512,8199
209,,19008,-20128,2160,-176,-1792,1072,-464,8199
210,,20720,-18048,2144,96,-1904,928,-496,8199
211,,21984,-15504,2080,336,-2000,736,-528,8199
212,,22528,-12480,2096,624,-2080,528,-464,8199
213,,22288,-9072,2048,880,-2048,288,-464,8199
214,,21600,-5072,2016,1120,-1952,48,-464,8199
215,,19888,-960,1984,1280,-1936,-304,-448,8199
216,,17520,3200,1968,1408,-1744,-560,-464,8199
217,,14672,7136,1920,1488,-1568,-816,-480,8199
218,,11616,10864,1856,1536,-1344,-1120,-480,8199
219,,8160,14064,1856,1536,-1040,-1344,-448,8199
220,,4592,17008,1776,1472,-832,-1584,-448,8199
221,,736,19216,1760,1392,-512,-1776,-448,8199
222,,-3296,21072,1728,1248,-256,-1920,-464,8199
223,,-7296,22240,1680,1088,32,-2016,-432,8199
224,,-11168,22928,1680,832,304,-2048,-432,8199
225,,-14608,22768,1616,576,592,-2048,-432,8199
226,,-17600,21968,1568,288,800,-2000,-448,8199
227,,-19872,20336,1568,0,992,-1904,-448,8199
228,,-21440,18016,1504,-288,1152,-1760,-448,8199
229,,-22480,15200,1520,-544,1248,-1568,-432,8199
230,,-22944,11984,1440,-832,1264,-1376,-448,8199
231,,-22768,8400,1424,-1072,1296,-1072,-432,8199
232,,-22192,4608,1360,-1296,1232,-832,-448,8199
233,,-20720,784,1376,-1488,1136,-528,-432,8199
234,,-18576,-3168,1312,-1664,976,-272,-432,8199
235,,-15824,-7088,1280,-1728,800,48,-480,8199
236,,-12400,-10976,1264,-1776,560,288,-464,8199
237,,-8448,-14528,1248,-1792,320,544,-448,8199
238,,-4624,-17648,1216,-1696,64,800,-448,8199
239,,-800,-19888,1168,-1632,-272,992,-496,8199
240,,2928,-21616,1184,-1472,-560,1120,-480,8199
241,,6704,-22448,1200,-1264,-832,1232,-448,8199
242,,10288,-22800,1120,-1056,-1104,1264,-480,8199
243,,13520,-22544,1120,-816,-1344,1248,-480,8199
244,,16816,-21952,1072,-544,-1600,1200,-512,8199
245,,19216,-20464,1056,-256,-1760,1088,-512,8199
246,,21136,-18432,992,64,-1920,960,-496,8199
247,,22304,-15776,1056,352,-2000,800,-480,8199
248,,22624,-12704,992,608,-2080,576,-480,8199
249,,22224,-9104,992,880,-2064,336,-432,8199
250,,21376,-5040,992,1088,-2032,80,-464,8199
251,,19824,-880,944,1248,-1920,-224,-480,8199
252,,17648,3184,944,1408,-1776,-496,-480,8199
253,,15088,7024,880,1504,-1568,-784,-448,8199
254,,12080,10672,880,1536,-1360,-1072,-464,8199
255,,8640,13888,880,1568,-1120,-1344,-464,8199
256,,4768,16912,880,1520,-848,-1568,-448,8199
257,,608,19392,816,1424,-576,-1760,-464,8199
258,,-3536,21312,784,1248,-304,-1888,-448,8199
259,,-7584,22560,784,1120,0,-1968,-400,8199
260,,-11296,23104,784,864,272,-2048,-416,8199
261,,-14448,22800,736,592,544,-2080,-448,8199
262,,-17392,21984,688,336,784,-2000,-448,8199
263,,-19600,20320,656,64,976,-1920,-432,8199
264,,-21408,18000,672,-240,1104,-1760,-432,8199
265,,-22672,15312,656,-512,1184,-1616,-416,8199
266,,-23328,12128,624,-816,1248,-1392,-432,8199
267,,-23152,8608,656,-1040,1280,-1072,-416,8199
268,,-22464,4816,560,-1280,1200,-848,-432,8199
269,,-20832,816,576,-1440,1104,-592,-464,8199
270,,-18432,-3264,528,-1616,1008,-272,-448,8199
271,,-15632,-7264,544,-1696,832,-32,-448,8199
272,,-12256,-11136,560,-1712,592,240,-464,8199
273,,-8512,-14608,496,-1728,336,512,-464,8199
274,,-4880,-17584,496,-1664,80,720,-464,8199
275,,-1152,-19824,448,-1584,-192,912,-480,8199
276,,2736,-21536,480,-1504,-496,1088,-464,8199
277,,6608,-22528,464,-1312,-752,1184,-496,8199
278,,10448,-22976,432,-1088,-1040,1248,-496,8199
279,,13936,-22800,432,-784,-1248,1248,-464,8199
280,,17120,-22128,416,-560,-1504,1184,-512,8199
281,,19344,-20624,416,-288,-1712,1088,-464,8199
282,,21008,-18432,368,-16,-1872,928,-512,8199
283,,22096,-15744,400,288,-1920,784,-480,8199
284,,22528,-12624,384,544,-2016,560,-480,8199
285,,22192,-9008,352,784,-2000,384,-480,8199
286,,21504,-5024,352,976,-2000,96,-480,8199
287,,20144,-1056,336,1168,-1920,-208,-496,8199
288,,17872,3008,336,1376,-1760,-464,-464,8199
289,,15296,6960,352,1440,-1600,-720,-432,8199
290,,12096,10688,336,1520,-1344,-1024,-448,8199
291,,8400,14096,304,1504,-1168,-1280,-464,8199
292,,4544,17152,288,1472,-880,-1472,-432,8199
293,,512,19616,272,1424,-576,-1648,-480,8199
294,,-3552,21392,272,1264,-320,-1792,-416,8199
295,,-7408,22528,224,1056,-48,-1920,-448,8199
296,,-11040,23040,240,880,224,-1984,-432,8199
297,,-14368,22736,176,624,480,-1984,-432,8199
298,,-17360,21920,224,368,688,-1952,-416,8199
299,,-19840,20480,208,80,880,-1872,-416,8199
300,,-21696,18176,176,-160,1056,-1744,-448,8199
301,,-22912,15472,192,-432,1168,-1568,-432,8199
302,,-23424,12256,160,-736,1216,-1360,-432,8199
303,,-23136,8608,160,-960,1232,-1152,-448,8199
304,,-22224,4720,176,-1216,1168,-864,-416,8199
305,,-20736,736,112,-1392,1104,-640,-464,8199
306,,-18432,-3408,80,-1520,960,-336,-448,8199
307,,-15712,-7296,80,-1632,816,-64,-464,8199
308,,-12560,-11072,80,-1680,592,208,-432,8199
309,,-8800,-14544,48,-1696,320,432,-480,8199
310,,-5008,-17488,64,-1616,80,656,-464,8199
311,,-1104,-19888,64,-1568,-192,864,-464,8199
312,,2912,-21696,64,-1440,-448,1008,-448,8199
313,,6816,-22784,64,-1280,-720,1088,-480,8199
314,,10656,-23168,48,-1056,-992,1152,-480,8199
315,,13968,-22960,0,-832,-1248,1136,-464,8199
316,,16992,-22176,80,-560,-1424,1104,-496,8199
317,,19216,-20608,64,-304,-1616,1024,-496,8199
318,,20976,-18432,64,-32,-1776,896,-528,8199
319,,22144,-15744,32,224,-1856,720,-512,8199
320,,22704,-12704,48,496,-1952,560,-480,8199
321,,22480,-9088,0,720,-1920,304,-512,8199
322,,21728,-5120,48,912,-1936,96,-496,8199
323,,20256,-1056,32,1120,-1856,-176,-480,8199
324,,17872,3024,16,1216,-1760,-448,-496,8199
325,,15104,7072,0,1328,-1568,-720,-496,8199
326,,11920,10880,-16,1408,-1360,-944,-432,8199
327,,8336,14224,16,1408,-1104,-1200,-464,8199
328,,4608,17184,32,1376,-864,-1408,-416,8199
329,,688,19584,-16,1328,-592,-1616,-448,8199
330,,-3392,21344,-32,1184,-352,-1712,-464,8199
331,,-7392,22544,-48,1024,-80,-1808,-432,8199
332,,-11104,23168,-16,848,176,-1872,-416,8199
333,,-14576,22960,-16,624,416,-1872,-400,8199
334,,-17600,22064,-48,352,656,-1840,-432,8199
335,,-19984,20576,-80,128,800,-1760,-416,8199
336,,-21744,18256,-96,-160,944,-1696,-432,8199
337,,-22912,15440,-64,-384,1072,-1504,-416,8199
338,,-23360,12208,-96,-656,1104,-1312,-448,8199
339,,-23120,8512,-96,-912,1136,-1120,-416,8199
340,,-22288,4656,-96,-1072,1088,-880,-432,8199
341,,-20832,736,-80,-1248,1024,-608,-432,8199
342,,-18592,-3360,-128,-1440,896,-352,-448,8199
343,,-15856,-7296,-112,-1536,704,-64,-480,8199
344,,-12576,-11072,-144,-1600,576,128,-464,8199
345,,-8656,-14640,-144,-1616,304,368,-464,8199
346,,-4848,-17568,-160,-1552,96,608,-480,8199
347,,-976,-20000,-128,-1488,-192,752,-480,8199
348,,3024,-21792,-128,-1360,-432,896,-464,8199
349,,6784,-22848,-128,-1232,-688,992,-480,8199
350,,10592,-23168,-112,-1040,-912,1088,-480,8199
351,,14016,-22944,-144,-800,-1136,1056,-496,8199
352,,16992,-22160,-144,-592,-1344,1008,-496,8199
353,,19328,-20672,-144,-320,-1536,912,-480,8199
354,,21200,-18464,-144,-96,-1664,832,-512,8199
355,,22320,-15808,-144,176,-1808,704,-496,8199
356,,22816,-12752,-144,448,-1840,496,-480,8199
357,,22512,-9120,-112,656,-1872,304,-464,8199
358,,21712,-5040,-160,880,-1824,112,-480,8199
359,,20160,-976,-160,1008,-1776,-192,-496,8199
360,,17808,3152,-144,1120,-1616,-416,-448,8199
361,,15184,7184,-160,1248,-1472,-672,-464,8199
362,,12000,10880,-144,1312,-1312,-912,-480,8199
363,,8448,14272,-160,1344,-1088,-1104,-432,8199
364,,4608,17232,-144,1312,-880,-1360,-464,8199
365,,592,19600,-176,1232,-656,-1552,-464,8199
366,,-3568,21472,-160,1120,-400,-1632,-448,8199
367,,-7584,22688,-176,976,-128,-1744,-448,8199
368,,-11280,23248,-224,784,96,-1824,-464,8199
369,,-14688,23040,-224,544,352,-1808,-464,8199
370,,-17664,22144,-256,352,528,-1792,-448,8199
371,,-20000,20544,-240,112,688,-1728,-464,8199
372,,-21760,18208,-240,-128,848,-1632,-448,8199
373,,-22992,15376,-240,-384,928,-1472,-432,8199
374,,-23488,12224,-176,-608,1024,-1264,-416,8199
375,,-23280,8528,-256,-816,1008,-1088,-448,8199
376,,-22464,4688,-224,-1024,1024,-832,-416,8199
377,,-20928,704,-256,-1232,880,-640,-464,8199
378,,-18560,-3440,-272,-1360,800,-400,-448,8199
379,,-15744,-7440,-272,-1440,672,-144,-480,8199
380,,-12496,-11248,-272,-1504,512,64,-464,8199
381,,-8640,-14816,-272,-1536,272,272,-464,8199
382,,-4832,-17808,-272,-1488,48,512,-464,8199
383,,-992,-20096,-240,-1392,-176,688,-448,8199
384,,3008,-21872,-272,-1280,-400,816,-512,8199
385,,6864,-22896,-256,-1168,-640,912,-480,8199
386,,10736,-23328,-256,-976,-848,928,-464,8199
387,,14240,-23072,-256,-784,-1104,944,-496,8199
388,,17248,-22304,-288,-576,-1232,928,-480,8199
389,,19504,-20752,-272,-272,-1440,864,-496,8199
390,,21328,-18544,-256,-96,-1584,720,-480,8199
391,,22384,-15808,-256,144,-1680,624,-464,8199
392,,22848,-12656,-256,368,-1728,480,-464,8199
393,,22544,-8928,-240,560,-1744,304,-448,8199
394,,21776,-4912,-272,752,-1696,64,-512,8199
395,,20288,-880,-256,912,-1680,-176,-480,8199
396,,17936,3248,-256,1024,-1600,-416,-496,8199
397,,15232,7312,-224,1136,-1408,-624,-464,8199
398,,12032,10976,-256,1200,-1280,-832,-480,8199
399,,8336,14448,-272,1248,-1056,-1008,-448,8199
400,,4432,17456,-272,1184,-832,-1248,-464,8199
401,,416,19840,-240,1120,-640,-1408,-480,8199
402,,-3728,21712,-240,1024,-384,-1488,-448,8199
403,,-7712,22864,-272,896,-160,-1632,-448,8199
404,,-11408,23328,-288,720,48,-1680,-464,8199
405,,-14768,23072,-256,560,304,-1696,-432,8199
406,,-17744,22144,-272,352,464,-1680,-416,8199
407,,-20160,20512,-320,112,624,-1632,-448,8199
408,,-21936,18160,-304,-128,736,-1520,-448,8199
409,,-23168,15344,-288,-336,864,-1392,-432,8199
410,,-23680,12192,-304,-544,896,-1216,-432,8199
411,,-23376,8416,-304,-784,912,-1040,-448,8199
