,1216 2#ÎÞ¹¦²¹³¥,2000
12,11A,1D
1,UAB,,,V,0.00382409177820268,0,0,-2048,2047,1,1,S
2,UBC,,,V,0.00377073906485671,0,0,-2048,2047,1,1,S
3,3U0,,,V,0.00377073906485671,0,0,-2048,2047,1,1,S
4,CUA,,,V,0.00376222723852521,0,0,-2048,2047,1,1,S
5,CUB,,,V,0.00377073906485671,0,0,-2048,2047,1,1,S
6,CUC,,,V,0.00374672161858374,0,0,-2048,2047,1,1,S
7,IA,,,A,0.00289017341040462,0,0,-2048,2047,1,1,S
8,IB,,,A,0.00286123032904149,0,0,-2048,2047,1,1,S
9,IC,,,A,0.00289017341040462,0,0,-2048,2047,1,1,S
10,3I0,,,A,0.000714285714285714,0,0,-2048,2047,1,1,S
11,CI0,,,A,0.00722543352601156,0,0,-2048,2047,1,1,S
1,DI,,,1
0
1
1800,3744
13/12/2012,09:32:20.261000
13/12/2012,09:32:20.341000
ASCII
1
1,,-26240,7584,-1104,-32112,-784,-960,-368,-880,-1920,-1328,-960,8205
2,,-26608,11808,-1072,-32096,-800,-960,-480,-704,-1904,-1264,-944,8205
3,,-26352,15616,-1088,-32128,-832,-960,-672,-608,-1920,-1280,-960,8205
4,,-25344,18960,-1072,-32112,-800,-960,-800,-496,-1904,-1280,-960,8205
5,,-23344,21456,-1088,-32144,-832,-976,-1008,-320,-1808,-1312,-960,8205
6,,-20784,23456,-1056,-32128,-832,-976,-1168,-272,-1728,-1296,-944,8205
7,,-17584,24688,-1056,-32144,-816,-944,-1328,-240,-1600,-1280,-992,8205
8,,-13920,25200,-1072,-32112,-816,-976,-1504,-224,-1504,-1264,-944,8205
9,,-9840,24864,-1072,-32112,-800,-944,-1568,-208,-1360,-1248,-944,8205
10,,-5456,23808,-1088,-32128,-800,-944,-1696,-256,-1200,-1232,-976,8205
11,,-1024,21808,-1088,-32096,-800,-928,-1792,-320,-1040,-1264,-960,8205
12,,3520,19264,-1088,-32096,-800,-944,-1888,-464,-832,-1248,-960,8205
13,,7872,16000,-1120,-32128,-832,-1008,-1920,-592,-688,-1280,-1008,8205
14,,12128,12336,-1088,-32112,-800,-960,-1920,-704,-544,-1232,-960,8205
15,,15840,8192,-1088,-32128,-816,-944,-1904,-880,-400,-1232,-976,8205
16,,19120,3712,-1120,-32112,-816,-976,-1856,-1040,-288,-1280,-960,8205
17,,21616,-736,-1088,-32112,-800,-976,-1760,-1216,-192,-1248,-960,8205
18,,23600,-5328,-1104,-32112,-832,-944,-1664,-1408,-64,-1216,-960,8205
19,,24800,-9776,-1104,-32112,-816,-960,-1536,-1616,-48,-1248,-960,8205
20,,25392,-14016,-1088,-32112,-800,-944,-1440,-1808,16,-1248,-960,8205
21,,24928,-17808,-1152,-32144,-816,-960,-1312,-1952,0,-1280,-992,8205
22,,23984,-21152,-1120,-32128,-816,-944,-1072,-2048,-48,-1264,-944,8205
23,,22064,-23696,-1136,-32112,-800,-976,-912,-2144,-128,-1248,-928,8205
24,,19440,-25648,-1104,-32064,-784,-960,-752,-2240,-224,-1264,-976,8205
25,,16240,-26864,-1104,-32112,-816,-944,-560,-2272,-288,-1280,-944,8205
26,,12608,-27408,-1104,-32096,-784,-944,-384,-2320,-432,-1248,-960,8205
27,,8544,-27040,-1120,-32112,-800,-960,-288,-2288,-576,-1264,-976,8205
28,,4128,-25968,-1120,-32112,-816,-960,-224,-2224,-720,-1264,-992,8205
29,,-336,-24016,-1104,-32112,-800,-928,-112,-2160,-896,-1280,-944,8205
30,,-4784,-21504,-1088,-32112,-784,-944,-16,-2064,-1072,-1264,-960,8205
31,,-9216,-18208,-1104,-32112,-800,-928,32,-1936,-1216,-1280,-944,8205
32,,-13392,-14544,-1088,-32112,-816,-944,0,-1808,-1408,-1280,-976,8205
33,,-17152,-10384,-1088,-32112,-832,-944,16,-1616,-1536,-1280,-976,8205
34,,-20512,-5952,-1088,-32128,-800,-960,-64,-1472,-1648,-1296,-960,8205
35,,-22976,-1472,-1120,-32096,-848,-992,-192,-1264,-1776,-1328,-976,8205
36,,-24864,3056,-1072,-32112,-816,-944,-256,-1056,-1856,-1280,-976,8205
37,,-26192,7568,-1120,-32160,-800,-960,-368,-928,-1936,-1312,-1008,8205
38,,-26688,11776,-1104,-32144,-816,-944,-496,-752,-1936,-1264,-976,8205
39,,-26304,15536,-1056,-32096,-816,-976,-624,-592,-1920,-1280,-960,8205
40,,-25312,18960,-1072,-32112,-816,-960,-816,-480,-1904,-1328,-960,8205
41,,-23360,21472,-1088,-32096,-832,-960,-1008,-368,-1824,-1264,-960,8205
42,,-20832,23424,-1040,-32112,-816,-928,-1152,-240,-1712,-1264,-944,8205
43,,-17616,24640,-1072,-32128,-832,-960,-1344,-208,-1632,-1280,-960,8205
44,,-13984,25216,-1024,-32096,-832,-928,-1488,-176,-1520,-1264,-944,8205
45,,-9936,24864,-1088,-32128,-800,-944,-1600,-224,-1360,-1296,-992,8205
46,,-5504,23792,-1088,-32128,-800,-944,-1712,-272,-1232,-1264,-960,8205
47,,-1008,21840,-1056,-32112,-800,-944,-1776,-304,-1024,-1248,-960,8205
48,,3392,19376,-1072,-32112,-800,-960,-1872,-464,-848,-1248,-992,8205
49,,7824,16016,-1072,-32112,-832,-944,-1920,-576,-688,-1248,-960,8205
50,,12048,12352,-1104,-32128,-816,-960,-1936,-720,-512,-1264,-960,8205
51,,15760,8272,-1104,-32112,-800,-944,-1888,-864,-400,-1264,-960,8205
52,,19120,3776,-1088,-32160,-816,-960,-1840,-1040,-304,-1248,-976,8205
53,,21632,-720,-1088,-32112,-816,-960,-1744,-1216,-160,-1216,-960,8205
54,,23584,-5248,-1088,-32128,-816,-944,-1680,-1392,-48,-1232,-976,8205
55,,24784,-9712,-1120,-32128,-832,-976,-1536,-1600,-16,-1232,-960,8205
56,,25360,-13920,-1072,-32112,-816,-944,-1392,-1744,16,-1232,-944,8205
57,,24976,-17696,-1104,-32128,-800,-960,-1248,-1920,16,-1280,-960,8205
58,,24000,-21088,-1088,-32096,-800,-960,-1072,-2016,16,-1216,-976,8205
59,,22064,-23696,-1088,-32112,-848,-960,-928,-2160,-112,-1264,-944,8205
60,,19520,-25632,-1088,-32112,-800,-928,-720,-2208,-208,-1248,-928,8205
61,,16288,-26864,-1072,-32096,-816,-976,-592,-2256,-288,-1280,-944,8205
62,,12656,-27344,-1120,-32112,-800,-912,-416,-2320,-400,-1280,-960,8205
63,,8608,-27104,-1104,-32096,-784,-960,-304,-2304,-544,-1264,-960,8205
64,,4192,-25968,-1088,-32128,-832,-976,-224,-2240,-704,-1264,-960,8205
65,,-288,-24048,-1088,-32128,-832,-944,-96,-2144,-912,-1280,-944,8205
66,,-4672,-21568,-1088,-32096,-784,-944,-32,-2048,-1072,-1280,-944,8205
67,,-9136,-18240,-1136,-32096,-832,-928,16,-1920,-1248,-1280,-960,8205
68,,-13312,-14592,-1040,-32096,-784,-928,48,-1776,-1376,-1280,-960,8205
69,,-17072,-10480,-1072,-32112,-800,-944,-16,-1600,-1504,-1280,-960,8205
70,,-20400,-6000,-1056,-32096,-816,-928,-64,-1472,-1664,-1280,-992,8205
71,,-22960,-1488,-1072,-32112,-800,-944,-144,-1248,-1760,-1248,-928,8205
72,,-24832,2960,-1088,-32128,-832,-928,-240,-1072,-1856,-1296,-944,8205
73,,-26112,7488,-1088,-32128,-784,-928,-336,-864,-1920,-1280,-960,8205
74,,-26672,11712,-1072,-32112,-800,-928,-496,-768,-1952,-1296,-976,8205
75,,-26352,15456,-1040,-32096,-816,-944,-608,-608,-1952,-1264,-976,8205
76,,-25296,18896,-1040,-32096,-784,-928,-768,-480,-1872,-1248,-928,8205
77,,-23392,21504,-1088,-32144,-816,-976,-992,-400,-1808,-1296,-976,8205
78,,-20896,23456,-1040,-32128,-800,-960,-1168,-256,-1712,-1264,-944,8205
79,,-17664,24656,-1056,-32112,-832,-944,-1312,-224,-1616,-1264,-976,8205
80,,-14016,25232,-1056,-32064,-784,-944,-1456,-176,-1488,-1248,-960,8205
81,,-9984,24832,-1072,-32112,-832,-944,-1600,-208,-1344,-1264,-976,8205
82,,-5536,23808,-1088,-32112,-832,-976,-1696,-272,-1200,-1296,-976,8205
83,,-1040,21888,-1056,-32096,-816,-944,-1776,-320,-1024,-1184,-928,8205
84,,3328,19424,-1088,-32112,-816,-944,-1888,-480,-848,-1248,-960,8205
85,,7760,16096,-1104,-32128,-800,-976,-1920,-560,-688,-1264,-976,8205
86,,11952,12416,-1104,-32144,-816,-960,-1952,-720,-544,-1232,-976,8205
87,,15712,8384,-1120,-32112,-784,-960,-1888,-880,-400,-1232,-960,8205
88,,19008,3824,-1072,-32096,-800,-944,-1840,-1040,-256,-1232,-960,8205
89,,21632,-672,-1072,-32096,-768,-944,-1760,-1200,-160,-1232,-976,8205
90,,23584,-5136,-1120,-32144,-832,-928,-1648,-1440,-48,-1232,-976,8205
91,,24768,-9664,-1136,-32096,-784,-976,-1536,-1616,-16,-1248,-976,8205
92,,25344,-13888,-1104,-32112,-800,-944,-1408,-1792,0,-1216,-928,8205
93,,25040,-17664,-1088,-32112,-832,-960,-1264,-1920,0,-1264,-944,8205
94,,23968,-21056,-1136,-32128,-784,-1008,-1104,-2016,-32,-1280,-960,8205
95,,22064,-23680,-1120,-32128,-816,-944,-928,-2112,-128,-1264,-976,8205
96,,19568,-25648,-1104,-32112,-800,-928,-736,-2192,-192,-1232,-944,8205
97,,16368,-26864,-1120,-32112,-848,-960,-608,-2288,-304,-1248,-960,8205
98,,12704,-27376,-1136,-32096,-800,-976,-448,-2304,-432,-1264,-960,8205
99,,8704,-27104,-1056,-32128,-816,-960,-336,-2288,-560,-1264,-960,8205
100,,4256,-25968,-1104,-32112,-800,-960,-192,-2240,-720,-1312,-944,8205
101,,-272,-24048,-1056,-32128,-816,-928,-112,-2160,-880,-1264,-976,8205
102,,-4752,-23888,30960,-32128,-784,-960,-32,-2064,-1072,-1280,-976,8205
103,,-9136,-18160,30352,-32112,-800,-944,-48,-1984,-1152,-1280,-992,8205
104,,-13344,-14320,29584,-32112,-816,-992,0,-1840,-1296,-1296,-960,8205
105,,-17120,-10608,28848,-32144,-816,-976,-32,-1664,-1472,-1296,-960,8205
106,,-20672,-5808,28032,-32128,-816,-960,-64,-1488,-1632,-1280,-976,8205
107,,-23760,-688,26960,-32096,-816,-944,-128,-1248,-1792,-1328,-960,8205
108,,-26400,4400,25760,-32080,-784,-944,-192,-1040,-1904,-1312,-944,8205
109,,-27888,9344,24864,-32128,-800,-976,-336,-864,-1952,-1280,-944,8205
110,,-24448,11760,-2352,-32112,-784,-928,-496,-704,-1888,-1280,-960,8205
111,,-25536,15856,-5728,-32112,-816,-944,-608,-544,-1984,-1296,-944,8205
112,,-24416,18640,-6288,-32096,-784,-944,-768,-464,-1920,-1264,-960,8205
113,,-21952,21440,-6528,-32096,-800,-928,-960,-352,-1792,-1264,-960,8205
114,,-19600,23584,-6528,-32112,-784,-928,-1136,-304,-1696,-1264,-960,8205
115,,-16912,24672,-6032,-32096,-784,-960,-1344,-240,-1584,-1248,-976,8205
116,,-14064,25168,-5440,-32112,-832,-944,-1488,-208,-1424,-1248,-976,8205
117,,-10352,24880,-5280,-32080,-800,-928,-1600,-224,-1312,-1248,-944,8205
118,,-5984,23696,-5296,-32112,-800,-960,-1712,-256,-1216,-1264,-960,8205
119,,-1296,21744,-5328,-32128,-800,-960,-1760,-304,-1040,-1248,-944,8205
120,,3248,19360,-5408,-32128,-832,-960,-1872,-432,-896,-1248,-944,8205
121,,7744,16064,-5360,-32112,-816,-960,-1904,-560,-704,-1248,-944,8205
122,,11904,12320,-5344,-32112,-832,-976,-1920,-688,-528,-1232,-960,8205
123,,15664,8192,-5376,-32112,-800,-960,-1888,-864,-384,-1248,-976,8205
124,,19008,3296,-5616,-32080,-800,-944,-1824,-1056,-240,-1216,-960,8205
125,,21504,-1776,-5888,-32144,-832,-960,-1792,-1312,-160,-1232,-992,8205
126,,23504,-6512,-5984,-32128,-816,-944,-1664,-1440,-80,-1264,-944,8205
127,,24816,-10432,-5504,-32112,-816,-976,-1552,-1632,0,-1264,-960,8205
128,,25312,-13840,-4960,-32096,-832,-928,-1376,-1728,0,-1232,-944,8205
129,,25072,-17328,-4784,-32096,-784,-944,-1264,-1904,0,-1264,-944,8205
130,,23984,-20720,-4768,-32080,-816,-960,-1088,-2016,-64,-1248,-960,8205
131,,22080,-23424,-4864,-32064,-768,-928,-896,-2096,-80,-1200,-928,8205
132,,19648,-25536,-4880,-32112,-816,-944,-736,-2224,-176,-1248,-960,8205
133,,16416,-26736,-4848,-32096,-784,-928,-560,-2256,-272,-1248,-912,8205
134,,12704,-27232,-4784,-32112,-816,-944,-400,-2304,-368,-1264,-944,8205
135,,8720,-27056,-4736,-32096,-800,-928,-304,-2336,-528,-1264,-992,8205
136,,4320,-29104,20688,-32096,-816,-960,-112,-2128,-880,-1264,-928,8205
137,,-1952,-22768,30064,-32096,-816,-944,-144,-2192,-832,-1248,-960,8205
138,,-15376,-11072,22784,-32096,-784,-928,-96,-2112,-912,-1264,-912,8205
139,,-20480,-6720,21600,-32096,-816,-960,-16,-2000,-1184,-1296,-960,8205
140,,-24208,-3760,20912,-32128,-816,-944,16,-1824,-1408,-1312,-992,8205
141,,-27040,-528,20368,-32080,-784,-976,32,-1648,-1584,-1296,-944,8205
142,,-28976,2800,19792,-32128,-816,-976,-32,-1424,-1728,-1296,-960,8205
143,,-28496,5968,17952,-32112,-784,-960,-128,-1232,-1840,-1296,-944,8205
144,,-17120,8976,9136,-32064,-832,-976,-224,-1040,-1888,-1264,-944,8205
145,,-15392,11728,7760,-32128,-816,-960,-384,-912,-1904,-1280,-976,8205
146,,-13776,14144,6896,-32128,-800,-944,-512,-752,-1872,-1264,-960,8205
147,,-12064,15952,6032,-32112,-800,-960,-688,-608,-1840,-1248,-976,8205
148,,-10224,16352,4448,-32112,-800,-944,-848,-496,-1808,-1296,-928,8205
149,,-8208,12624,336,-32128,-832,-960,-944,-400,-1792,-1280,-960,8205
150,,-7936,12432,-8592,-32128,-816,-960,-1232,-400,-1536,-1264,-960,8205
151,,-17120,23264,-23808,-32128,-816,-992,-1248,-176,-1728,-1280,-960,8205
152,,-16960,24896,-23728,-32112,-832,-960,-1392,-144,-1648,-1296,-976,8205
153,,-15520,24352,-22800,-32128,-816,-960,-1568,-144,-1488,-1264,-976,8205
154,,-12560,23120,-22480,-32128,-816,-976,-1696,-256,-1264,-1280,-960,8205
155,,-2192,21040,-26704,-32048,-784,-944,-1824,-320,-960,-1232,-944,8205
156,,3152,18624,-27088,-32096,-800,-976,-1936,-512,-736,-1264,-960,8205
157,,7696,15520,-26592,-32112,-800,-960,-1968,-624,-560,-1248,-944,8205
158,,11856,12000,-25920,-32096,-800,-976,-1920,-768,-480,-1280,-976,8205
159,,15632,8368,-25200,-32112,-832,-960,-1840,-896,-368,-1216,-944,8205
160,,19008,4032,-24704,-32096,-816,-960,-1792,-1024,-336,-1248,-960,8205
161,,21488,-576,-24224,-32112,-800,-928,-1696,-1120,-224,-1216,-928,8205
162,,23520,-5008,-23936,-32096,-784,-944,-1648,-1360,-128,-1216,-928,8205
163,,24752,-9616,-23568,-32112,-848,-976,-1616,-1600,-48,-1280,-960,8205
164,,25200,-13744,-23104,-32112,-800,-976,-1440,-1760,32,-1264,-960,8205
165,,24992,-17520,-22624,-32080,-784,-944,-1296,-1952,64,-1232,-976,8205
166,,23936,-20960,-22176,-32096,-816,-944,-1088,-2064,0,-1248,-944,8205
167,,22048,-23648,-21712,-32096,-800,-960,-896,-2160,-32,-1248,-944,8205
168,,19584,-15904,-12752,-32128,-816,-944,-608,-2144,-384,-1296,-944,8205
169,,16544,-28144,26784,-32096,-816,-960,-560,-2304,-256,-1264,-960,8205
170,,12880,-26880,25920,-32096,-768,-928,-464,-2304,-304,-1232,-960,8205
171,,8832,-27248,25280,-32128,-800,-944,-416,-2320,-448,-1264,-944,8205
172,,4352,-26304,24688,-32112,-800,-944,-272,-2256,-640,-1248,-928,8205
173,,-192,-24160,24112,-32096,-768,-928,-96,-2144,-864,-1248,-944,8205
174,,-4576,-21728,23504,-32112,-800,-944,16,-2032,-1120,-1264,-928,8205
175,,-9072,-18432,22880,-32096,-816,-928,96,-1904,-1344,-1264,-976,8205
176,,-13360,-14464,22240,-32112,-784,-960,80,-1776,-1456,-1264,-944,8205
177,,-17568,-10048,21376,-32128,-816,-944,32,-1600,-1552,-1264,-960,8205
178,,-21632,-4864,20256,-32112,-800,-944,-112,-1456,-1616,-1280,-960,8205
179,,-24800,320,19200,-32096,-784,-928,-192,-1280,-1616,-1248,-928,8205
180,,-26400,4256,18800,-32128,-816,-944,-320,-1104,-1728,-1296,-944,8205
181,,-26992,7984,18656,-32080,-816,-912,-320,-928,-1840,-1264,-960,8205
182,,-26576,11520,18352,-32096,-800,-944,-416,-752,-1952,-1264,-944,8205
183,,-24704,14896,16864,-32112,-800,-976,-576,-608,-2032,-1296,-976,8205
184,,-15808,18320,10496,-32096,-800,-960,-688,-432,-1984,-1280,-944,8205
185,,-13232,20976,9184,-32128,-800,-928,-928,-320,-1888,-1248,-944,8205
186,,-11392,22112,7712,-32096,-800,-960,-1152,-224,-1776,-1264,-944,8205
187,,-20176,27520,-23456,-32096,-784,-944,-1408,-240,-1472,-1280,-960,8205
188,,-19616,26208,-24928,-32112,-800,-960,-1488,-144,-1488,-1280,-928,8205
189,,-14240,24544,-26176,-32112,-800,-944,-1552,-144,-1376,-1248,-944,8205
190,,-6336,23616,-28448,-32128,-816,-960,-1696,-304,-1296,-1280,-976,8205
191,,-1328,21776,-28320,-32112,-848,-976,-1760,-368,-1088,-1248,-992,8205
192,,3120,19264,-27760,-32128,-832,-960,-1840,-480,-864,-1232,-976,8205
193,,7536,16128,-27248,-32080,-816,-976,-1904,-592,-672,-1264,-976,8205
194,,11744,12416,-26640,-32112,-848,-960,-1968,-736,-512,-1264,-976,8205
195,,15584,8352,-26080,-32112,-800,-928,-1936,-832,-368,-1232,-944,8205
196,,18896,3984,-25552,-32096,-816,-960,-1888,-1008,-240,-1248,-960,8205
197,,21440,-656,-25088,-32112,-816,-992,-1792,-1232,-208,-1264,-976,8205
198,,23456,-5184,-24608,-32144,-816,-960,-1648,-1456,-128,-1248,-992,8205
199,,24768,-9600,-24032,-32112,-800,-928,-1456,-1584,-32,-1232,-928,8205
200,,25216,-13760,-23568,-32128,-816,-944,-1344,-1776,0,-1216,-960,8205
201,,24992,-17600,-23104,-32112,-816,-960,-1248,-1904,48,-1248,-960,8205
202,,23920,-20944,-22624,-32128,-816,-960,-1088,-2032,-48,-1248,-976,8205
203,,21968,-23568,-22112,-32096,-768,-944,-960,-2112,-48,-1216,-944,8205
204,,19456,-25632,-21616,-32160,-832,-976,-800,-2256,-176,-1264,-944,8205
205,,16640,-29328,8208,-32096,-832,-960,-448,-2080,-608,-1264,-960,8205
206,,12864,-26816,28704,-32064,-768,-944,-448,-2304,-304,-1232,-928,8205
207,,8816,-27600,27552,-32096,-800,-944,-352,-2352,-416,-1216,-944,8205
208,,4432,-26000,26880,-32096,-832,-944,-256,-2320,-624,-1264,-960,8205
209,,-112,-24368,26272,-32096,-800,-944,-80,-2208,-832,-1248,-960,8205
210,,-4528,-21792,25648,-32112,-800,-944,0,-2064,-1056,-1248,-960,8205
211,,-8992,-18640,25040,-32096,-800,-928,64,-1872,-1344,-1296,-944,8205
212,,-13168,-14896,24400,-32112,-800,-944,48,-1712,-1472,-1280,-944,8205
213,,-17024,-10608,23824,-32112,-816,-976,-48,-1568,-1600,-1312,-960,8205
214,,-20400,-6160,23232,-32096,-800,-928,-48,-1392,-1616,-1280,-928,8205
215,,-23040,-1504,22608,-32096,-816,-928,-176,-1280,-1712,-1280,-944,8205
216,,-25088,3008,22032,-32128,-784,-960,-240,-1136,-1776,-1280,-976,8205
217,,-26416,7376,21408,-32080,-784,-944,-352,-1008,-1824,-1296,-960,8205
218,,-26736,11456,20944,-32112,-832,-960,-448,-800,-1888,-1248,-960,8205
219,,-26448,15168,20384,-32112,-800,-944,-592,-608,-1936,-1248,-976,8205
220,,-24896,18512,19472,-32112,-832,-976,-784,-480,-1936,-1296,-976,8205
221,,-18160,21072,15328,-32096,-800,-976,-992,-304,-1888,-1312,-976,8205
222,,-12272,22976,12000,-32112,-816,-976,-1184,-208,-1760,-1280,-992,8205
223,,-9536,19424,7952,-32112,-816,-992,-1344,-192,-1664,-1280,-992,8205
224,,-16848,26128,-19200,-32112,-816,-976,-1600,-336,-1216,-1264,-976,8205
225,,-16624,24704,-24080,-32112,-832,-960,-1536,-208,-1472,-1280,-992,8205
226,,-7216,22800,-26832,-32128,-800,-960,-1632,-256,-1328,-1248,-976,8205
227,,-1520,21056,-27616,-32112,-816,-960,-1712,-320,-1120,-1264,-960,8205
228,,3056,18880,-27376,-32112,-800,-960,-1840,-432,-896,-1248,-960,8205
229,,7504,15600,-26832,-32112,-784,-944,-1936,-560,-656,-1248,-992,8205
230,,11680,12320,-26176,-32112,-832,-976,-1984,-720,-448,-1232,-960,8205
231,,15488,8640,-25536,-32128,-816,-992,-1952,-864,-336,-1264,-960,8205
232,,18832,4208,-24992,-32144,-816,-992,-1904,-1072,-240,-1232,-976,8205
233,,21424,-304,-24576,-32128,-816,-944,-1744,-1232,-192,-1264,-944,8205
234,,23440,-4912,-24208,-32096,-800,-960,-1568,-1392,-144,-1232,-944,8205
235,,24816,-9504,-23824,-32112,-800,-944,-1456,-1568,-96,-1232,-944,8205
236,,25152,-13648,-23344,-32144,-816,-960,-1360,-1744,-48,-1264,-976,8205
237,,25040,-17520,-22912,-32112,-816,-944,-1280,-1872,0,-1248,-960,8205
238,,23952,-20864,-22416,-32128,-816,-976,-1200,-2064,0,-1264,-976,8205
239,,22032,-23504,-21936,-32128,-832,-960,-1008,-2160,-16,-1232,-960,8205
240,,19520,-25552,-21456,-32112,-800,-960,-784,-2224,-144,-1248,-960,8205
241,,16544,-20832,-16752,-32096,-800,-976,-544,-2272,-336,-1312,-944,8205
242,,12992,-29792,30608,-32128,-800,-944,-416,-2368,-384,-1200,-944,8205
243,,8976,-27408,24208,-32096,-784,-960,-320,-2368,-512,-1264,-944,8205
244,,4448,-26272,23648,-32112,-800,-960,-240,-2320,-624,-1280,-992,8205
245,,-96,-24240,23136,-32096,-800,-944,-144,-2176,-832,-1264,-960,8205
246,,-4512,-21808,22592,-32128,-816,-960,-64,-2048,-1072,-1296,-976,8205
247,,-8912,-18608,22016,-32128,-832,-960,0,-1888,-1280,-1280,-960,8205
248,,-13152,-14944,21488,-32128,-816,-928,48,-1776,-1440,-1280,-944,8205
249,,-16992,-10704,20960,-32128,-768,-944,32,-1632,-1584,-1264,-944,8205
250,,-20384,-6208,20384,-32096,-816,-944,0,-1456,-1648,-1280,-928,8205
251,,-23056,-1648,19856,-32112,-832,-944,-96,-1328,-1760,-1328,-960,8205
252,,-25072,2960,19360,-32112,-784,-944,-240,-1120,-1824,-1264,-944,8205
253,,-26320,7312,18880,-32112,-816,-944,-368,-944,-1856,-1280,-944,8205
254,,-26688,11392,18480,-32112,-832,-944,-512,-720,-1888,-1248,-960,8205
255,,-26400,15168,18032,-32112,-800,-944,-624,-560,-1904,-1264,-928,8205
256,,-25344,18496,17472,-32096,-784,-944,-768,-432,-1888,-1296,-928,8205
257,,-23040,21120,16672,-32112,-784,-928,-944,-352,-1888,-1264,-960,8205
258,,-18240,23136,14384,-32096,-800,-944,-1120,-272,-1792,-1296,-960,8205
259,,-11632,24304,11152,-32112,-784,-944,-1280,-224,-1648,-1280,-928,8205
260,,-8416,19504,6912,-32112,-800,-960,-1408,-224,-1536,-1296,-960,8205
261,,-16928,27712,-23968,-32112,-816,-944,-1664,-320,-1168,-1232,-944,8205
262,,-7904,23264,-27824,-32096,-784,-928,-1632,-192,-1264,-1216,-944,8205
263,,-1632,21088,-28464,-32112,-816,-944,-1760,-272,-1136,-1248,-960,8205
