,1215 循环水系统2#水泵电机,2000
8,7A,1D
1,UAB,,,V,0.00568504832291074,0,0,-2048,2047,1,1,S
2,UBC,,,V,0.0056785917092561,0,0,-2048,2047,1,1,S
3,3U0,,,V,0.00565610859728507,0,0,-2048,2047,1,1,S
4,IA,,,A,0.00435161009573542,0,0,-2048,2047,1,1,S
5,IB,,,A,0.00432338953739732,0,0,-2048,2047,1,1,S
6,IC,,,A,0.00427899015832264,0,0,-2048,2047,1,1,S
7,3I0,,,A,0.00107874865156419,0,0,-2048,2047,1,1,S
1,DI,,,1
0
1
1800,3744
17/06/2013,00:29:6.422000
17/06/2013,00:29:6.502000
ASCII
1
1,,-16192,-7344,272,400,992,464,720,8205
2,,-12688,-11392,336,432,896,544,720,8205
3,,-8784,-15120,352,352,896,640,720,8205
4,,-4496,-18464,320,368,832,704,720,8205
5,,-224,-20928,352,384,768,768,720,8205
6,,4304,-23024,352,432,704,816,704,8205
7,,8544,-24320,336,448,624,816,704,8205
8,,12608,-24944,288,512,512,816,672,8205
9,,16320,-24752,352,576,432,816,720,8205
10,,16096,-22192,336,592,432,864,736,8205
11,,11776,-17344,336,528,560,832,704,8205
12,,17152,-16224,336,464,608,784,720,8205
13,,15952,-12160,304,432,688,768,736,8205
14,,18544,-9744,320,336,800,752,736,8205
15,,18512,-5920,320,320,928,656,704,8205
16,,19040,-2480,368,240,1056,624,736,8205
17,,18896,-3504,432,144,1104,624,720,8205
18,,18096,-128,432,128,1136,640,720,8205
19,,16832,2064,448,80,1152,704,720,8205
20,,15040,5264,432,32,1104,752,688,8205
21,,12784,7712,480,0,1056,800,704,8205
22,,10208,10224,496,16,992,944,720,8205
23,,6752,13296,448,0,896,992,704,8205
24,,4256,15232,512,64,896,1120,752,8205
25,,816,17696,416,64,736,1088,704,8205
26,,-2000,18864,336,128,688,1136,720,8205
27,,-4512,19120,272,224,576,1136,736,8205
28,,-7696,19168,176,288,480,1104,704,8205
29,,-10320,18768,160,384,416,1120,704,8205
30,,-12800,18256,96,496,320,1088,704,8205
31,,-14496,16960,112,576,256,1056,736,8205
32,,-16416,15488,-128,688,224,1040,736,8205
33,,-17248,13536,208,784,176,960,704,8205
34,,-17680,10864,560,864,208,880,720,8205
35,,-17536,7536,1008,944,160,800,736,8205
36,,-17520,4480,1008,1008,176,752,736,8205
37,,-16480,1648,592,1040,192,704,752,8205
38,,-12432,-2432,-192,1088,240,592,736,8205
39,,-11520,-8624,-32,1104,208,576,720,8205
40,,-8752,-8848,944,1104,272,528,736,8205
41,,-5952,-11968,896,1136,320,512,720,8205
42,,-3184,-12048,448,1120,352,416,720,8205
43,,384,-15040,240,1120,464,336,752,8205
44,,3264,-16064,112,1088,528,304,736,8205
45,,5392,-17584,576,1056,576,272,736,8205
46,,8704,-18032,1136,1008,640,224,704,8205
47,,11840,-17888,1152,976,704,256,768,8205
48,,13360,-17040,912,912,736,240,704,8205
49,,15968,-14704,1088,864,816,224,720,8205
50,,17872,-13264,560,832,896,208,704,8205
51,,18560,-11600,160,784,912,176,736,8205
52,,19040,-8848,80,768,976,208,704,8205
53,,18576,-6272,96,656,960,208,736,8205
54,,18144,-3824,160,640,1024,288,752,8205
55,,17008,-1216,288,576,992,336,768,8205
56,,15184,1984,352,544,1024,416,752,8205
57,,13648,4416,336,496,944,448,720,8205
58,,10576,8208,336,464,960,544,704,8205
59,,8448,10192,464,384,928,576,720,8205
60,,5616,12608,368,400,864,656,720,8205
61,,2592,14672,368,384,800,752,720,8205
62,,-2624,18192,192,368,800,752,704,8205
63,,-4080,17696,128,368,768,768,704,8205
64,,-7632,19024,-48,352,704,816,688,8205
65,,-9424,18432,-496,384,640,864,720,8205
66,,-11728,17840,-688,432,624,848,704,8205
67,,-13216,16576,-656,432,528,864,688,8205
68,,-14480,15344,-640,544,480,832,720,8205
69,,-15664,13456,-672,608,480,864,736,8205
70,,-16192,11168,-752,672,432,832,704,8205
71,,-16256,8464,-800,752,416,800,752,8205
72,,-16016,5680,-688,816,352,752,720,8205
73,,-15040,2688,-672,864,352,704,736,8205
74,,-13584,-1280,-528,896,320,672,704,8205
75,,-11712,-4432,-224,1008,304,672,752,8205
76,,-9344,-7376,80,1024,240,656,704,8205
77,,-6832,-9120,208,1056,256,608,736,8205
78,,-4272,-11840,320,1088,272,560,736,8205
79,,-1664,-13056,416,1104,320,464,704,8205
80,,1248,-14768,544,1152,384,448,768,8205
81,,3952,-15872,784,1120,400,400,736,8205
82,,7632,-16080,864,1152,464,320,736,8205
83,,9728,-16400,784,1152,496,256,672,8205
84,,12448,-15936,768,1136,544,192,720,8205
85,,14368,-15008,720,1152,624,160,752,8205
86,,16240,-13680,640,1120,672,112,704,8205
87,,17360,-11904,432,1136,704,80,736,8205
88,,17664,-9792,320,1088,768,32,720,8205
89,,17696,-7296,288,1056,816,48,704,8205
90,,17488,-4768,256,992,896,48,768,8205
91,,16672,-2128,192,944,928,0,704,8205
92,,15280,736,192,912,944,48,720,8205
93,,13600,4000,304,816,992,80,752,8205
94,,11056,6960,544,768,992,80,704,8205
95,,8368,9728,640,704,1024,96,704,8205
96,,5632,12080,608,656,1056,128,720,8205
97,,2912,14064,480,608,1120,192,736,8205
98,,176,15216,256,528,1072,224,688,8205
99,,-3024,16656,96,544,1120,320,736,8205
100,,-5232,17232,-112,496,1088,368,704,8205
101,,-8112,17312,-208,464,1072,432,752,8205
102,,-10384,16992,-256,432,1024,496,736,8205
103,,-12672,16288,-224,384,960,528,704,8205
104,,-14144,15072,-240,384,960,592,736,8205
105,,-16064,13584,-96,384,864,656,752,8205
106,,-16608,11376,16,368,832,704,720,8205
107,,-17088,9360,160,368,800,752,704,8205
108,,-16416,6640,304,384,736,768,720,8205
109,,-14016,2656,384,448,688,816,736,8205
110,,-13344,-80,288,480,624,816,688,8205
111,,-11568,-3216,224,544,544,848,704,8205
112,,-9760,-5568,224,624,448,832,752,8205
113,,-7328,-8256,144,672,384,816,736,8205
114,,-4784,-10480,176,800,384,800,752,8205
115,,-2016,-12592,128,832,320,800,736,8205
116,,1680,-14784,160,912,288,736,720,8205
117,,4528,-15808,416,1040,272,736,752,8205
118,,7024,-16320,528,1056,240,624,720,8205
119,,9776,-16656,592,1136,208,544,688,8205
120,,11856,-16336,608,1200,208,512,752,8205
121,,13664,-15424,640,1280,240,432,736,8205
122,,15184,-14240,560,1296,304,368,736,8205
123,,17040,-12592,512,1328,320,320,752,8205
124,,17424,-10384,320,1360,448,240,736,8205
125,,17696,-8064,240,1360,432,112,752,8205
126,,16864,-5248,256,1344,512,32,720,8205
127,,16512,-2624,192,1280,608,-32,704,8205
128,,14912,336,256,1248,688,-80,688,8205
129,,13536,3072,304,1232,800,-112,704,8205
130,,11456,5664,320,1136,864,-128,720,8205
131,,9216,8304,352,1056,992,-128,768,8205
132,,6544,10592,304,960,1024,-160,736,8205
133,,4032,12416,352,880,1136,-80,752,8205
134,,1232,14128,368,816,1168,-16,736,8205
135,,-9024,22640,-1072,640,1360,-64,720,8205
136,,-10896,22800,-4112,448,1600,-128,720,8205
137,,-12976,22784,-5920,272,1776,-112,768,8205
138,,-15936,23424,-7584,96,1984,-112,720,8205
139,,-16400,21472,-8624,-80,2112,-112,768,8205
140,,-17856,19968,-9072,-192,2176,-64,736,8205
141,,-17648,16640,-9120,-288,2224,16,736,8205
142,,-17296,13936,-8944,-320,2192,32,736,8205
143,,-16608,10400,-8704,-336,2128,192,736,8205
144,,-20128,2096,-8496,-432,1968,384,752,8205
145,,-17056,-880,-8368,-592,1792,688,688,8205
146,,-15712,-4624,-8144,-640,1664,896,736,8205
147,,-12368,-9232,-7936,-672,1472,1184,720,8205
148,,-9088,-12160,-7776,-688,1264,1408,736,8205
149,,-4624,-16240,-7600,-608,976,1600,688,8205
150,,384,-18928,-7424,-512,688,1744,704,8205
151,,3248,-20208,-7280,-320,416,1872,672,8205
152,,7728,-21424,-7088,-144,128,1968,704,8205
153,,10384,-21568,-6912,64,-128,1968,704,8205
154,,13632,-21504,-6720,320,-304,1936,736,8205
155,,16560,-20992,-6608,560,-496,1888,704,8205
156,,18992,-19792,-6432,784,-640,1792,704,8205
157,,21568,-18080,-6208,1056,-784,1632,672,8205
158,,23184,-15456,-5920,1328,-880,1456,688,8205
159,,23600,-12480,-5616,1568,-928,1248,704,8205
160,,23808,-8928,-5392,1792,-896,1072,736,8205
161,,22304,-4896,-5312,2000,-864,720,720,8205
162,,20912,-960,-5216,2176,-736,512,736,8205
163,,18800,2800,-5120,2240,-592,240,752,8205
164,,16096,6816,-4864,2320,-384,-48,752,8205
165,,13504,10208,-4688,2384,-160,-336,752,8205
166,,10144,13568,-4416,2352,64,-528,720,8205
167,,5984,16528,-3808,2304,304,-720,752,8205
168,,256,19088,-2400,2208,576,-880,752,8205
169,,-5520,21392,-1424,2128,832,-1008,768,8205
170,,-9584,22928,-1648,1872,1104,-1120,768,8205
171,,-12128,23408,-1936,1680,1328,-1136,736,8205
172,,-14768,23424,-2480,1408,1616,-1152,736,8205
173,,-16368,22416,-3040,1136,1792,-1088,704,8205
174,,-17424,20912,-3408,896,1952,-960,720,8205
175,,-18640,18752,-3584,640,2048,-864,752,8205
176,,-20016,15856,-2944,384,2112,-688,704,8205
177,,-20256,11856,-1648,176,2144,-416,752,8205
178,,-17024,4784,1280,-32,2160,-176,736,8205
179,,-15536,112,2128,-272,2096,64,720,8205
180,,-14416,-3616,2096,-416,1968,288,672,8205
181,,-12816,-6912,1952,-544,1888,560,704,8205
182,,-10864,-10080,1536,-608,1696,800,720,8205
183,,-8864,-12576,1104,-624,1520,1056,720,8205
184,,-6752,-14560,576,-592,1232,1296,704,8205
185,,-4432,-16192,16,-576,1008,1504,688,8205
186,,-2144,-17200,-464,-416,752,1664,736,8205
187,,928,-18272,-336,-336,512,1760,704,8205
188,,6128,-19952,1216,-160,256,1840,688,8205
189,,10368,-17776,3840,16,48,1824,656,8205
190,,14384,-16752,5072,256,-176,1824,672,8205
191,,17680,-16304,5168,496,-352,1792,704,8205
192,,20128,-15424,5024,752,-496,1712,720,8205
193,,21824,-14208,4688,976,-624,1552,688,8205
194,,22912,-12592,4208,1216,-688,1392,688,8205
195,,23232,-10736,3696,1424,-736,1216,736,8205
196,,23120,-8784,3024,1600,-768,992,688,8205
197,,22624,-6400,2288,1744,-688,768,704,8205
198,,21456,-3472,1840,1936,-576,560,784,8205
199,,19552,1696,2928,2032,-480,320,720,8205
200,,16896,6176,3504,2112,-320,80,736,8205
201,,13680,10288,3648,2160,-128,-128,752,8205
202,,9856,13776,3808,2160,80,-336,720,8205
203,,5504,17120,4016,2080,320,-496,736,8205
204,,1136,19568,4368,2000,544,-624,768,8205
205,,-3040,21472,4480,1872,736,-736,720,8205
206,,-6544,22656,4256,1744,960,-800,736,8205
207,,-9600,23328,3728,1552,1168,-864,704,8205
208,,-12192,23184,3376,1408,1360,-832,736,8205
209,,-15360,22624,3312,1184,1504,-768,720,8205
210,,-18032,21296,3312,976,1648,-720,736,8205
211,,-20304,19344,3440,736,1728,-608,736,8205
212,,-21680,16704,3472,528,1808,-480,704,8205
213,,-22336,13552,3424,320,1808,-320,704,8205
214,,-22128,9984,3408,192,1840,-112,688,8205
215,,-21408,6064,3360,48,1776,80,720,8205
216,,-19808,2048,3328,-96,1696,256,704,8205
217,,-17872,-1920,3296,-192,1632,464,720,8205
218,,-15344,-5728,3264,-240,1488,656,688,8205
219,,-12288,-9600,3200,-288,1328,816,720,8205
220,,-8688,-13024,3184,-256,1184,1024,672,8205
221,,-4976,-16096,3120,-224,1008,1168,720,8205
222,,-864,-18752,3120,-160,832,1264,736,8205
223,,3184,-20720,3120,-96,592,1360,720,8205
224,,7120,-21872,3024,32,448,1424,704,8205
225,,10912,-22400,3024,192,288,1456,688,8205
226,,14032,-22272,2992,336,112,1440,720,8205
227,,17216,-21648,2944,528,48,1424,704,8205
228,,19712,-20272,2928,688,-96,1360,704,8205
229,,21488,-18304,2880,848,-208,1248,672,8205
230,,22912,-15856,2864,992,-256,1152,704,8205
231,,23728,-12976,2832,1136,-304,1040,720,8205
232,,23664,-9664,2784,1264,-304,896,752,8205
233,,23168,-5776,2752,1424,-256,784,752,8205
234,,21728,-1680,2736,1520,-192,640,752,8205
235,,19552,2528,2704,1600,-160,496,736,8205
236,,16800,6528,2672,1648,-32,352,704,8205
237,,13744,10384,2656,1664,96,144,704,8205
238,,10336,13728,2576,1632,208,-16,720,8205
239,,6800,16816,2560,1696,368,-80,800,8205
240,,2928,19296,2560,1616,512,-192,752,8205
241,,-1040,21216,2448,1536,576,-304,704,8205
242,,-5136,22592,2368,1424,704,-352,704,8205
243,,-9104,23424,2384,1360,896,-352,704,8205
244,,-12720,23488,2336,1248,1024,-384,752,8205
245,,-15936,23008,2320,1136,1136,-352,736,8205
246,,-18384,21552,2240,960,1216,-304,720,8205
247,,-20256,19472,2272,848,1264,-304,672,8205
248,,-21424,16768,2176,752,1312,-224,688,8205
249,,-22016,13568,2176,656,1344,-128,688,8205
250,,-22096,10080,2096,512,1360,-16,704,8205
251,,-21632,6416,2096,432,1360,112,688,8205
252,,-20352,2496,2128,320,1328,240,736,8205
253,,-18464,-1376,2016,272,1296,336,704,8205
254,,-15840,-5344,2048,208,1232,480,736,8205
255,,-12528,-9280,2032,192,1200,592,752,8205
256,,-8656,-13008,1968,160,1072,624,720,8205
257,,-4768,-16256,1968,176,960,768,704,8205
258,,-896,-18848,1952,176,864,848,720,8205
259,,2928,-20752,1888,240,736,880,688,8205
260,,6576,-21840,1904,288,624,960,704,8205
261,,10432,-22336,1840,336,560,976,704,8205
262,,13776,-22192,1856,464,480,1024,720,8205
263,,17104,-21760,1824,496,400,1008,736,8205
264,,19840,-20544,1792,624,288,992,704,8205
265,,21824,-18624,1744,704,256,960,720,8205
266,,23248,-16208,1744,784,176,928,704,8205
267,,23904,-13200,1760,880,160,864,736,8205
268,,23648,-9760,1728,944,144,816,720,8205
269,,22912,-5808,1728,1056,112,736,720,8205
270,,21632,-1600,1648,1120,128,656,720,8205
271,,19536,2528,1648,1120,160,576,752,8205
272,,17056,6432,1632,1184,192,496,736,8205
273,,14192,10224,1648,1264,272,448,720,8205
274,,10768,13520,1600,1248,256,336,720,8205
275,,7024,16720,1600,1296,368,272,752,8205
276,,2928,19328,1568,1280,400,192,736,8205
277,,-1312,21424,1488,1248,512,176,736,8205
278,,-5440,22928,1488,1216,560,112,736,8205
279,,-9296,23760,1472,1232,688,96,752,8205
280,,-12624,23648,1456,1184,720,32,752,8205
281,,-15696,22944,1424,1152,784,32,736,8205
282,,-18144,21568,1392,1040,816,-16,688,8205
283,,-20032,19440,1408,992,896,-16,720,8205
284,,-21520,16816,1376,928,944,32,768,8205
285,,-22384,13760,1344,832,992,80,704,8205
286,,-22480,10336,1312,816,1024,80,736,8205
287,,-21920,6576,1280,736,1040,128,736,8205
288,,-20512,2656,1328,704,1056,176,720,8205
289,,-18368,-1472,1264,624,1056,208,736,8205
290,,-15600,-5568,1216,544,1056,288,720,8205
291,,-12416,-9504,1184,544,1024,320,704,8205
292,,-8656,-13120,1184,512,1008,400,736,8205
293,,-5024,-16256,1200,464,944,432,672,8205
294,,-1200,-18752,1200,480,928,512,752,8205
295,,2656,-20656,1200,448,848,560,704,8205
296,,6528,-21824,1168,464,832,608,704,8205
297,,10528,-22512,1168,416,736,640,720,8205
298,,14096,-22464,1136,464,720,704,704,8205
299,,17488,-21968,1152,528,704,736,736,8205
300,,19984,-20704,1120,544,640,736,720,8205
301,,21872,-18656,1120,576,592,768,736,8205
302,,23104,-16160,1088,624,512,768,688,8205
303,,23744,-13120,1088,672,496,768,704,8205
304,,23568,-9664,1072,704,416,800,720,8205
305,,23008,-5728,1024,768,400,752,720,8205
306,,21888,-1712,1040,800,368,736,704,8205
307,,19840,2368,1056,848,336,688,720,8205
308,,17264,6288,1024,896,352,656,720,8205
309,,14208,10192,1024,960,320,624,720,8205
310,,10624,13680,1024,992,320,560,704,8205
311,,6784,16880,1024,1088,368,496,736,8205
312,,2752,19568,976,1072,384,464,736,8205
313,,-1344,21536,960,1104,400,416,720,8205
314,,-5280,22928,960,1120,432,368,736,8205
315,,-9072,23664,912,1152,480,288,736,8205
316,,-12512,23568,896,1168,512,240,736,8205
317,,-15664,22960,880,1120,560,192,704,8205
318,,-18320,21664,928,1104,640,176,736,8205
319,,-20368,19584,896,1104,704,176,736,8205
320,,-21776,16992,880,1056,736,112,752,8205
321,,-22544,13888,848,1024,800,112,720,8205
322,,-22448,10384,848,976,848,128,704,8205
323,,-21760,6512,832,912,912,144,736,8205
324,,-20384,2496,848,848,928,128,752,8205
325,,-18272,-1552,784,832,976,144,720,8205
326,,-15712,-5568,768,752,960,176,720,8205
327,,-12608,-9472,752,688,960,224,768,8205
328,,-8896,-12992,784,656,1008,272,736,8205
329,,-5072,-16160,800,592,1040,352,752,8205
330,,-1200,-18752,752,560,992,368,720,8205
331,,2832,-20720,784,528,960,432,736,8205
332,,6736,-22064,736,480,896,448,704,8205
333,,10768,-22656,768,496,912,512,752,8205
334,,14208,-22608,752,496,864,608,720,8205
335,,17392,-22016,768,528,832,624,736,8205
336,,19856,-20720,768,512,784,672,752,8205
337,,21776,-18720,720,512,688,688,688,8205
338,,23168,-16112,752,528,656,704,720,8205
339,,23936,-13168,768,592,608,784,720,8205
340,,23888,-9728,768,640,544,800,720,8205
341,,23264,-5856,736,640,496,816,720,8205
342,,22032,-1760,720,688,416,800,736,8205
343,,19840,2368,720,752,400,768,720,8205
344,,17200,6416,720,816,352,752,736,8205
345,,14064,10368,704,880,336,736,720,8205
346,,10576,13856,688,944,320,688,720,8205
347,,6832,16976,704,976,352,608,768,8205
348,,2848,19584,704,1040,336,560,736,8205
349,,-1216,21488,672,1072,368,496,752,8205
350,,-5184,22880,640,1088,336,432,736,8205
351,,-9136,23712,672,1152,416,400,752,8205
352,,-12656,23712,624,1168,448,336,736,8205
353,,-15888,23056,624,1152,480,272,736,8205
354,,-18528,21728,592,1168,528,192,704,8205
355,,-20416,19664,640,1152,656,176,768,8205
356,,-21808,17008,608,1120,672,128,704,8205
357,,-22480,13840,608,1088,704,112,704,8205
358,,-22432,10272,576,1024,784,96,736,8205
359,,-21808,6432,560,976,848,48,704,8205
360,,-20544,2464,560,928,896,64,704,8205
361,,-18416,-1568,560,880,928,96,752,8205
362,,-15824,-5568,528,784,944,96,704,8205
363,,-12672,-9440,560,752,1008,192,752,8205
364,,-8864,-13120,512,704,992,224,720,8205
365,,-5024,-16240,544,656,1024,240,720,8205
366,,-1088,-18960,528,560,1008,304,736,8205
367,,2976,-20864,560,528,976,384,736,8205
368,,6784,-22160,560,496,928,416,704,8205
369,,10720,-22704,576,528,960,544,752,8205
370,,14256,-22608,576,480,896,544,768,8205
371,,17376,-22048,544,480,832,576,720,8205
372,,19984,-20800,544,496,784,640,720,8205
373,,21920,-18736,544,496,704,640,704,8205
374,,23360,-16224,544,528,672,720,704,8205
375,,24064,-13248,528,560,656,752,736,8205
376,,23984,-9760,528,608,560,768,720,8205
377,,23280,-5744,560,640,512,784,720,8205
378,,22048,-1648,560,688,496,784,704,8205
379,,19792,2512,544,720,400,784,736,8205
380,,17216,6576,512,800,384,720,720,8205
381,,14176,10432,560,880,384,704,688,8205
382,,10688,13904,512,928,336,672,720,8205
383,,6848,16992,496,928,336,608,704,8205
384,,2880,19680,560,1024,368,544,736,8205
385,,-1296,21648,512,1056,368,512,752,8205
386,,-5408,23072,528,1120,400,432,736,8205
387,,-9312,23872,496,1088,416,384,736,8205
388,,-12832,23872,496,1136,464,304,736,8205
389,,-15920,23104,464,1104,496,256,752,8205
390,,-18496,21792,448,1120,592,192,736,8205
391,,-20480,19664,480,1088,640,176,736,8205
392,,-21808,16912,464,1056,736,144,768,8205
393,,-22672,13856,464,992,752,112,688,8205
394,,-22640,10304,416,944,784,112,704,8205
395,,-21968,6448,480,928,832,112,688,8205
396,,-20608,2496,448,848,896,128,752,8205
397,,-18448,-1600,432,800,928,160,704,8205
398,,-15712,-5664,432,784,992,240,736,8205
399,,-12608,-9600,448,704,992,224,736,8205
400,,-8800,-13296,416,640,976,256,720,8205
401,,-4912,-16448,432,608,976,304,736,8205
402,,-1120,-19072,416,560,928,368,704,8205
403,,2880,-20976,400,512,912,432,688,8205
404,,6832,-22176,432,528,880,512,704,8205
405,,10768,-22784,448,496,832,528,720,8205
406,,14432,-22736,448,528,816,592,720,8205
407,,17664,-22144,448,512,768,608,720,8205
408,,20176,-20864,432,560,720,656,720,8205
409,,22112,-18784,448,576,656,704,720,8205
410,,23360,-16208,432,576,576,736,720,8205
411,,24096,-13184,448,656,560,720,720,8205
412,,23920,-9648,400,640,480,688,688,8205
413,,23264,-5632,416,672,432,704,656,8205
414,,22064,-1568,464,768,416,720,704,8205
415,,19888,2512,416,832,400,688,704,8205
416,,17248,6608,384,864,368,640,672,8205
417,,14176,10480,416,960,368,576,704,8205
418,,10544,14000,384,960,368,544,704,8205
419,,6640,17168,416,992,368,480,704,8205
420,,2608,19840,400,1056,400,448,720,8205
421,,-1536,21840,432,1056,432,368,720,8205
422,,-5584,23184,416,1056,496,336,704,8205
423,,-9440,23936,384,1072,528,256,720,8205
424,,-12912,23920,400,1072,576,224,720,8205
425,,-16048,23120,368,1056,656,192,736,8205
426,,-18656,21760,336,1024,688,160,688,8205
427,,-20640,19616,400,992,768,176,736,8205
428,,-22016,16864,352,944,800,128,704,8205
429,,-22800,13856,416,912,880,144,752,8205
430,,-22736,10208,352,832,896,144,720,8205
431,,-21952,6272,352,768,944,176,720,8205
432,,-20528,2304,384,704,960,192,720,8205
433,,-18400,-1824,320,656,976,256,704,8205
434,,-15632,-5888,368,592,944,288,704,8205
435,,-12560,-9776,352,576,960,352,720,8205
436,,-8784,-13408,336,528,976,416,720,8205
437,,-4848,-16624,336,512,896,448,704,8205
438,,-1008,-19072,384,480,912,544,752,8205
439,,3088,-21088,368,464,800,576,704,8205
