,2101 3#ÎÞ¹¦²¹³¥,2000
12,11A,1D
1,UAB,,,V,0.00371609067261241,0,0,-2048,2047,1,1,S
2,UBC,,,V,0.0037243947858473,0,0,-2048,2047,1,1,S
3,3U0,,,V,0.00373134328358209,0,0,-2048,2047,1,1,S
4,CUA,,,V,0.00377358490566038,0,0,-2048,2047,1,1,S
5,CUB,,,V,0.00375093773443361,0,0,-2048,2047,1,1,S
6,CUC,,,V,0.00372856077554064,0,0,-2048,2047,1,1,S
7,IA,,,A,0.00285306704707561,0,0,-2048,2047,1,1,S
8,IB,,,A,0.00285795941697628,0,0,-2048,2047,1,1,S
9,IC,,,A,0.0029120559114735,0,0,-2048,2047,1,1,S
10,3I0,,,A,0.000709219858156028,0,0,-2048,2047,1,1,S
11,CI0,,,A,0.00714285714285714,0,0,-2048,2047,1,1,S
1,DI,,,1
0
1
1800,3744
13/12/2012,09:31:54.084001
13/12/2012,09:31:54.164000
ASCII
1
1,,11424,15872,416,368,400,544,-368,880,1376,496,464,8397
2,,15456,11888,432,400,400,560,-304,768,1488,512,464,8397
3,,19216,7520,448,352,352,544,-288,640,1584,512,416,8397
4,,22272,3008,416,384,384,544,-256,480,1696,528,448,8397
5,,24528,-1584,448,368,336,528,-160,272,1776,528,432,8397
6,,26224,-6080,496,400,400,528,-80,144,1872,512,432,8397
7,,27088,-10544,512,400,384,544,32,48,1952,512,496,8397
8,,27168,-14704,480,400,352,544,128,-112,1920,544,464,8397
9,,26464,-18464,480,384,352,544,224,-160,1904,528,448,8397
10,,25040,-21632,432,368,400,528,368,-224,1840,512,496,8397
11,,22672,-23984,480,384,416,560,528,-272,1776,528,464,8397
12,,19856,-25664,432,368,336,528,688,-336,1664,528,464,8397
13,,16400,-26544,384,384,384,592,848,-400,1520,512,448,8397
14,,12448,-26560,416,400,400,560,976,-368,1456,544,512,8397
15,,8000,-25840,368,384,400,544,1040,-384,1328,560,464,8397
16,,3376,-24304,352,384,400,544,1120,-352,1232,512,496,8397
17,,-1360,-22000,288,368,368,528,1216,-288,1088,512,448,8397
18,,-5904,-19120,224,384,400,544,1248,-192,976,544,480,8397
19,,-10416,-15680,144,384,384,544,1264,-96,816,512,480,8397
20,,-14336,-11808,96,384,400,528,1248,64,688,544,464,8397
21,,-18032,-7472,64,352,368,544,1248,192,544,512,432,8397
22,,-21104,-2784,96,368,368,560,1216,352,464,512,496,8397
23,,-23408,1904,112,384,400,544,1168,448,368,512,432,8397
24,,-25120,6576,80,384,368,544,1072,592,272,512,448,8397
25,,-26032,11088,80,368,368,544,976,720,304,528,464,8397
26,,-26144,15136,128,368,384,560,896,832,352,576,480,8397
27,,-25568,18832,112,368,352,560,704,880,368,528,464,8397
28,,-24032,21760,96,368,368,544,544,976,416,528,464,8397
29,,-21696,24080,112,384,400,544,432,1072,496,512,464,8397
30,,-18784,25760,144,384,368,528,256,1168,528,528,464,8397
31,,-15184,26704,160,416,432,576,160,1200,624,512,464,8397
32,,-11136,26800,192,384,384,544,64,1232,704,544,464,8397
33,,-6768,26224,240,400,384,544,-16,1216,848,576,480,8397
34,,-2128,24720,256,384,384,528,-128,1152,992,560,480,8397
35,,2448,22368,304,320,336,528,-224,1008,1168,528,464,8397
36,,6976,19584,368,368,400,528,-272,912,1360,544,480,8397
37,,11376,15984,416,368,400,560,-320,816,1472,496,448,8397
38,,15376,11984,480,368,384,544,-352,720,1616,512,448,8397
39,,19152,7552,464,384,368,544,-320,624,1680,528,464,8397
40,,22288,2864,496,384,384,512,-256,512,1712,512,480,8397
41,,24512,-1728,496,400,400,544,-192,384,1776,496,464,8397
42,,26304,-6288,480,368,368,560,-96,240,1824,544,448,8397
43,,27248,-10784,480,384,400,528,16,48,1904,512,448,8397
44,,27200,-14672,448,384,384,528,112,-64,1872,496,464,8397
45,,26608,-18384,496,384,384,544,272,-176,1872,528,464,8397
46,,24960,-21440,480,384,368,512,384,-272,1872,528,464,8397
47,,22624,-23808,496,400,384,560,528,-320,1776,528,512,8397
48,,19760,-25568,464,400,400,528,656,-400,1696,544,448,8397
49,,16144,-26560,416,352,368,512,768,-384,1568,496,448,8397
50,,12288,-26688,400,368,352,544,912,-368,1440,512,480,8397
51,,7984,-26032,336,352,368,560,992,-352,1312,528,448,8397
52,,3360,-24480,320,336,384,544,1120,-304,1168,512,496,8397
53,,-1248,-22080,240,384,400,528,1216,-272,1024,512,432,8397
54,,-5808,-19072,256,400,368,560,1312,-144,896,512,480,8397
55,,-10432,-15552,112,352,368,528,1296,-112,784,512,464,8397
56,,-14400,-11600,48,368,352,528,1264,-16,640,496,448,8397
57,,-18224,-7168,112,384,352,512,1216,112,608,528,464,8397
58,,-21232,-2688,48,368,368,528,1184,272,480,528,480,8397
59,,-23488,1856,80,368,384,544,1056,448,400,528,464,8397
60,,-25200,6448,64,352,384,528,1024,608,320,528,464,8397
61,,-26032,10928,48,384,384,528,928,752,256,496,464,8397
62,,-26096,14992,64,384,368,528,832,864,272,512,480,8397
63,,-25360,18800,48,352,352,496,720,928,272,496,432,8397
64,,-23824,21904,96,336,384,528,608,992,368,528,464,8397
65,,-21568,24288,96,400,384,528,480,1072,464,512,480,8397
66,,-18720,25968,128,352,400,544,288,1136,592,528,464,8397
67,,-15216,26832,144,384,368,544,128,1168,704,560,480,8397
68,,-11280,26848,128,352,368,512,16,1152,784,512,448,8397
69,,-6880,26144,208,368,384,544,-96,1152,912,528,448,8397
70,,-2192,24560,224,384,368,544,-208,1152,992,528,464,8397
71,,2496,22240,288,384,384,528,-256,1088,1184,512,496,8397
72,,7120,19376,304,368,384,528,-272,992,1280,512,464,8397
73,,11584,15872,384,352,368,560,-288,896,1376,544,464,8397
74,,15568,12000,368,400,384,544,-288,768,1536,512,480,8397
75,,19232,7600,384,384,368,528,-272,560,1632,512,464,8397
76,,22224,3024,400,384,384,560,-256,448,1792,512,464,8397
77,,24512,-1632,368,384,400,576,-112,288,1840,560,448,8397
78,,26224,-6320,432,384,368,544,-112,176,1904,528,464,8397
79,,27136,-10944,400,336,352,544,-16,16,1872,544,464,8397
80,,27184,-14864,432,400,400,544,144,-32,1856,512,464,8397
81,,26560,-18576,416,368,352,544,256,-128,1840,512,464,8397
82,,25056,-21632,416,400,384,544,384,-192,1792,512,512,8397
83,,22752,-23856,416,368,368,512,528,-272,1696,528,464,8397
84,,19840,-25520,400,368,384,512,704,-400,1648,512,448,8397
85,,16224,-26384,416,384,368,544,848,-416,1600,560,480,8397
86,,12240,-26528,336,368,384,528,912,-448,1472,512,448,8397
87,,7776,-25872,336,368,384,528,1040,-416,1376,512,448,8397
88,,3184,-24368,288,368,352,560,1088,-336,1232,512,480,8397
89,,-1440,-22096,192,352,384,560,1184,-256,1072,512,464,8397
90,,-6016,-19200,96,368,400,528,1248,-128,912,512,496,8397
91,,-10352,-15680,-256,368,336,528,1248,-48,704,464,448,8397
92,,-14192,-13408,-21552,400,384,560,1328,128,576,528,496,8397
93,,-18192,-6144,-23744,368,352,528,1248,144,576,528,480,8397
94,,-21120,-2048,-23200,384,384,560,1200,240,528,528,464,8397
95,,-23488,1968,-22640,368,336,528,1120,368,464,496,432,8397
96,,-25280,6432,-22112,400,368,528,1056,560,368,528,416,8397
97,,-26128,11040,-21600,368,384,544,944,720,272,496,464,8397
98,,-26224,15072,-21088,368,400,528,848,848,256,512,480,8397
99,,-25440,18784,-20544,384,384,576,704,976,304,512,464,8397
100,,-23536,21824,-19904,384,352,544,544,1056,352,512,464,8397
101,,-18832,24144,-17648,368,384,544,384,1120,432,480,464,8397
102,,-10848,25936,-13568,320,368,528,256,1168,528,512,464,8397
103,,-7648,26800,-13232,352,384,528,144,1184,640,512,464,8397
104,,-6496,17792,-2144,384,352,528,-64,1056,928,544,448,8397
105,,-15488,28528,26720,368,384,528,-16,1184,784,496,464,8397
106,,-3280,26464,31904,368,384,544,-80,1136,880,512,448,8397
107,,2048,22688,32016,368,400,576,-176,1088,1056,496,480,8397
108,,6976,19296,31296,352,384,544,-256,976,1248,528,464,8397
109,,11456,15680,30640,384,400,576,-336,864,1440,528,480,8397
110,,15504,11888,29968,368,384,544,-368,720,1616,528,432,8397
111,,19360,7664,29296,352,384,528,-368,592,1728,512,480,8397
112,,22352,2848,28656,400,384,528,-272,448,1808,512,464,8397
113,,24672,-1792,28048,368,384,512,-176,288,1808,528,432,8397
114,,26304,-6400,27392,368,368,528,-80,160,1792,496,448,8397
115,,27136,-10976,26832,368,384,512,80,32,1760,512,448,8397
116,,27088,-14800,26272,368,352,544,192,-64,1824,528,448,8397
117,,26464,-18608,25696,368,352,528,240,-144,1808,512,448,8397
118,,24752,-21520,25056,368,368,528,336,-256,1824,528,448,8397
119,,22368,-23920,24384,352,384,528,496,-320,1840,528,464,8397
120,,18576,-25648,23104,368,368,512,624,-432,1664,512,464,8397
121,,10240,-18736,12816,352,352,496,800,-400,1456,528,416,8397
122,,14560,-30320,-28848,368,368,528,896,-432,1472,544,480,8397
123,,8208,-27648,-29952,368,336,496,1008,-432,1344,512,448,8397
124,,3408,-24032,-29536,384,384,576,1104,-400,1232,528,464,8397
125,,-1472,-21744,-29024,368,352,544,1200,-320,1088,528,464,8397
126,,-6144,-19104,-28416,368,352,512,1216,-256,928,544,464,8397
127,,-10592,-15712,-27840,304,336,512,1264,-112,720,496,448,8397
128,,-14496,-11872,-27152,368,352,512,1280,32,640,560,480,8397
129,,-18304,-7152,-26624,352,368,544,1264,208,464,512,448,8397
130,,-21312,-2400,-25984,352,368,528,1200,368,384,496,464,8397
131,,-23488,2160,-25424,352,336,512,1120,464,336,528,448,8397
132,,-25200,6848,-24880,352,336,512,1040,592,336,512,464,8397
133,,-26000,11120,-24256,352,352,528,928,672,336,512,432,8397
134,,-26080,15056,-23760,368,352,528,784,768,384,512,464,8397
135,,-25488,18752,-23184,352,352,528,672,848,384,496,432,8397
136,,-23760,21696,-22560,336,336,528,576,960,400,512,448,8397
137,,-20640,24080,-21424,368,368,544,448,1120,448,560,464,8397
138,,-11344,25936,-16288,352,384,528,304,1216,464,528,480,8397
139,,-7392,26800,-15488,320,368,544,192,1264,544,512,464,8397
140,,-4128,26896,-15296,368,368,528,16,1248,704,528,448,8397
141,,-912,26288,-15216,384,352,544,-112,1168,848,512,432,8397
142,,2368,24608,-15088,368,384,560,-176,1104,1072,528,448,8397
143,,5568,21808,-14784,384,368,528,-272,976,1216,464,464,8397
144,,8672,9184,-7840,368,368,512,-336,864,1392,528,448,8397
145,,11584,3536,-6480,352,352,576,-304,816,1488,512,480,8397
146,,14112,-768,-6112,352,368,528,-320,672,1520,496,432,8397
147,,16816,-4992,-5696,352,336,528,-272,624,1584,496,448,8397
148,,21088,-8896,-3744,368,368,544,-240,496,1616,544,432,8397
149,,24128,-12320,-2592,320,352,496,-208,384,1728,496,448,8397
150,,26016,-15360,-1872,336,368,528,-128,208,1808,496,464,8397
151,,26576,-17648,-1216,352,336,528,-32,80,1888,560,480,8397
152,,23552,-16544,1200,368,384,544,128,-96,1920,496,448,8397
153,,18400,-13632,4224,352,384,544,224,-176,1920,528,512,8397
154,,15568,-13328,4800,368,352,528,384,-272,1824,528,480,8397
155,,12656,-12896,4992,368,336,512,560,-384,1760,544,448,8397
156,,9520,-12288,4944,352,368,528,704,-416,1632,464,448,8397
157,,6256,-12016,5280,368,384,528,848,-384,1536,512,464,8397
158,,2880,-16576,8912,384,416,560,944,-384,1408,512,480,8397
159,,-576,-17392,9856,384,400,576,1024,-368,1328,576,480,8397
160,,-3872,-17072,10048,384,368,560,1088,-320,1168,544,464,8397
161,,-6912,-16224,10000,352,368,560,1200,-240,1024,512,448,8397
162,,-9760,-15056,9760,400,368,576,1264,-176,944,560,464,8397
163,,-12320,-13520,9248,400,384,544,1312,-128,800,512,448,8397
164,,-14320,-11584,8656,384,384,544,1296,16,704,512,464,8397
165,,-16048,-9232,7904,352,384,528,1264,112,592,528,464,8397
166,,-17536,-6208,7296,400,384,560,1200,272,480,512,448,8397
167,,-21456,160,8896,336,352,528,1120,464,384,528,448,8397
168,,-24512,6480,10256,384,368,512,1024,640,320,512,464,8397
169,,-24896,11104,10832,336,384,528,912,736,256,512,464,8397
170,,-23248,15264,11920,400,384,576,832,912,304,512,464,8397
171,,-22272,19024,12048,368,384,560,720,960,352,512,480,8397
172,,-21200,22000,11648,352,384,560,592,1024,384,512,480,8397
173,,-19904,24256,11024,336,352,544,416,1056,480,496,448,8397
174,,-18144,25952,10256,400,400,544,272,1152,560,544,496,8397
175,,-15920,26752,9456,336,352,528,96,1136,656,496,464,8397
176,,-12064,26704,9424,368,352,560,32,1168,784,512,496,8397
177,,-7072,26080,9744,336,352,512,-96,1168,880,464,416,8397
178,,-2160,24464,9856,368,384,512,-192,1152,1008,512,464,8397
179,,2560,22224,9792,352,336,528,-256,1088,1136,528,416,8397
180,,7328,19328,9600,368,368,544,-304,992,1232,496,464,8397
181,,11744,15840,9408,352,336,512,-352,848,1408,512,432,8397
182,,15696,11904,9216,368,384,528,-320,720,1552,496,480,8397
183,,19488,7440,9056,384,368,576,-288,560,1664,528,448,8397
184,,22304,2816,8832,352,384,544,-272,416,1776,512,480,8397
185,,24656,-1888,8672,352,400,544,-160,272,1824,512,448,8397
186,,26272,-6576,8512,384,384,544,-96,144,1872,512,464,8397
187,,27120,-10912,8352,400,384,544,32,64,1872,528,464,8397
188,,27232,-14992,8176,352,384,528,160,0,1856,528,496,8397
189,,26592,-18672,7984,352,368,544,256,-96,1792,528,480,8397
190,,25024,-21568,7840,400,384,544,384,-208,1776,512,480,8397
191,,22768,-23888,7696,336,352,528,528,-320,1728,528,448,8397
192,,19760,-25600,7504,368,352,544,672,-432,1664,512,432,8397
193,,16176,-26464,7344,368,336,544,816,-496,1600,528,432,8397
194,,12176,-26528,7200,368,336,544,912,-512,1504,528,464,8397
195,,7664,-25952,7024,384,400,512,1008,-432,1344,496,464,8397
196,,3136,-24320,6880,384,368,528,1104,-368,1184,512,464,8397
197,,-1488,-22064,6736,384,352,544,1184,-240,1040,528,496,8397
198,,-6064,-19024,6608,368,352,544,1232,-128,848,544,448,8397
199,,-10432,-15472,6432,352,384,544,1280,-32,736,528,448,8397
200,,-14432,-11504,6304,352,384,512,1264,48,608,512,480,8397
201,,-18112,-7040,6080,368,352,496,1232,144,544,464,432,8397
202,,-21216,-2384,5968,320,352,544,1216,256,448,464,448,8397
203,,-23472,2192,5888,384,336,528,1136,416,416,512,448,8397
204,,-25248,6912,5760,384,368,544,1040,544,368,496,480,8397
205,,-26048,11168,5632,384,384,528,944,688,336,512,448,8397
206,,-26176,15168,5472,400,400,576,848,832,304,512,464,8397
207,,-25408,18864,5376,336,352,544,688,960,336,512,448,8397
208,,-23824,21936,5248,352,352,528,528,1056,384,512,480,8397
209,,-21424,24208,5088,368,368,512,400,1136,416,496,480,8397
210,,-18400,25984,5008,352,384,512,240,1152,512,496,448,8397
211,,-14896,26864,4896,384,368,528,128,1200,624,512,416,8397
212,,-10880,26864,4816,384,368,560,64,1168,752,528,480,8397
213,,-6560,26176,4656,384,368,512,-64,1088,880,464,448,8397
214,,-1968,24560,4592,368,400,560,-128,1088,1056,528,464,8397
215,,2688,22192,4496,384,384,528,-256,1008,1184,512,464,8397
216,,7280,19168,4384,368,384,544,-320,960,1296,512,464,8397
217,,11648,15536,4288,352,352,512,-368,880,1376,496,416,8397
218,,15776,11584,4112,368,336,512,-368,784,1488,480,464,8397
219,,19520,7232,4064,352,352,544,-304,656,1616,512,448,8397
220,,22400,2752,3968,352,368,512,-240,464,1680,480,416,8397
221,,24720,-1840,3856,368,384,512,-144,288,1792,480,464,8397
222,,26432,-6480,3808,352,352,544,-96,160,1872,528,464,8397
223,,27184,-10816,3744,352,336,544,0,48,1904,544,480,8397
224,,27168,-14896,3632,384,384,576,128,-112,1920,512,432,8397
225,,26512,-18736,3568,336,368,560,240,-192,1904,528,448,8397
226,,24848,-21728,3472,384,368,528,336,-240,1824,512,464,8397
227,,22528,-24032,3376,384,352,544,528,-304,1744,528,464,8397
228,,19632,-25744,3280,352,336,512,656,-368,1616,496,480,8397
229,,16096,-26512,3200,368,368,512,800,-400,1504,512,448,8397
230,,12160,-26528,3104,336,352,544,960,-400,1392,528,464,8397
231,,7712,-25840,3040,368,384,512,1056,-368,1248,528,448,8397
232,,3168,-24192,2928,384,368,544,1104,-336,1184,480,464,8397
233,,-1568,-21824,2848,384,384,544,1200,-272,1072,528,448,8397
234,,-6192,-18912,2720,336,352,528,1248,-192,912,496,432,8397
235,,-10592,-15376,2656,384,384,528,1264,-112,800,512,480,8397
236,,-14544,-11376,2512,368,352,560,1264,48,656,512,464,8397
237,,-18272,-6720,2288,336,352,544,1216,160,528,528,480,8397
238,,-21200,-1232,1584,416,368,544,1216,352,464,528,480,8397
239,,-23408,5600,-48,352,352,528,1120,480,352,544,464,8397
240,,-25104,10048,160,384,400,544,1056,592,336,544,464,8397
241,,-25952,13520,704,368,400,512,944,736,304,528,448,8397
242,,-26112,16336,1376,336,384,528,832,800,352,528,448,8397
243,,-25392,18672,2176,336,368,528,688,880,384,544,464,8397
244,,-23840,20576,2592,336,352,528,544,960,416,512,448,8397
245,,-21440,23680,2032,384,384,544,400,1120,512,576,480,8397
246,,-18464,25600,1584,384,384,576,256,1168,512,512,432,8397
247,,-14848,26528,1376,368,368,544,128,1216,608,528,448,8397
248,,-10576,26528,1136,368,384,528,0,1216,704,512,464,8397
249,,-5568,25232,640,368,384,544,-48,1200,848,528,464,8397
250,,528,22192,-416,368,400,544,-160,1120,1008,528,464,8397
251,,6144,18928,-1152,368,368,544,-224,1024,1168,544,448,8397
252,,10320,16352,-928,368,384,544,-288,928,1344,496,464,8397
253,,13664,13744,-304,384,400,576,-304,848,1488,560,480,8397
254,,16496,10912,400,384,384,576,-304,720,1600,544,528,8397
255,,18896,7664,1104,384,384,576,-288,624,1664,544,464,8397
256,,21264,3776,1456,352,384,576,-224,528,1744,544,512,8397
257,,24064,-1344,1008,400,384,576,-144,384,1808,544,464,8397
258,,26016,-6336,592,352,368,528,-112,192,1824,480,448,8397
259,,27152,-10928,416,368,368,544,48,48,1872,528,448,8397
260,,27184,-14880,320,400,384,560,144,-80,1888,496,464,8397
261,,26448,-18624,272,368,352,528,256,-208,1856,512,464,8397
262,,24832,-21632,224,400,384,544,400,-272,1808,512,464,8397
263,,22368,-23952,160,384,368,560,544,-336,1744,496,480,8397
264,,19344,-25712,96,400,384,544,688,-416,1664,496,480,8397
265,,15872,-26544,96,368,368,544,800,-384,1568,512,464,8397
266,,11984,-26576,112,384,352,528,912,-384,1472,528,464,8397
267,,7664,-25872,64,368,368,528,1008,-384,1312,512,480,8397
268,,3120,-24256,64,416,384,544,1136,-304,1152,528,448,8397
269,,-1440,-21840,16,384,384,560,1232,-240,1008,544,496,8397
270,,-6192,-18800,-48,400,384,544,1296,-192,928,544,464,8397
271,,-10480,-15232,-80,352,368,528,1296,-128,784,544,464,8397
272,,-14672,-11024,-240,368,352,560,1312,32,688,528,464,8397
273,,-18384,-6016,-768,368,384,512,1232,112,560,512,464,8397
274,,-21360,928,-2416,368,384,544,1200,336,496,528,464,8397
275,,-23600,5808,-2672,368,384,528,1088,448,400,496,480,8397
276,,-25168,9664,-2112,384,400,560,1056,640,368,544,512,8397
277,,-26000,12896,-1456,368,384,576,944,752,288,528,480,8397
278,,-25984,15680,-640,368,368,560,864,880,288,512,480,8397
279,,-25312,18032,96,368,352,560,736,960,320,528,480,8397
280,,-23776,20720,192,368,352,528,592,1024,352,528,464,8397
281,,-21344,23904,-496,384,368,544,448,1104,464,528,464,8397
282,,-18432,25920,-848,336,384,544,256,1136,576,544,464,8397
283,,-14960,26688,-944,384,352,576,144,1168,672,512,464,8397
284,,-10784,26736,-1008,368,368,528,0,1216,768,544,448,8397
285,,-6224,25744,-1088,400,368,544,-112,1152,912,544,448,8397
286,,-1184,23760,-1360,400,384,576,-160,1120,1024,528,464,8397
287,,4000,20896,-1728,352,368,544,-224,1072,1152,528,464,8397
288,,8816,17776,-1808,352,336,544,-288,992,1248,528,464,8397
289,,12624,14800,-1488,368,384,544,-320,864,1424,496,512,8397
290,,15904,11616,-976,384,368,512,-272,752,1520,512,480,8397
291,,19024,7648,-720,336,336,512,-304,560,1648,544,464,8397
292,,22096,3008,-784,368,384,560,-240,464,1744,544,496,8397
293,,24496,-1840,-912,384,368,544,-176,304,1824,512,464,8397
294,,26240,-6624,-1024,368,352,512,-96,176,1872,528,464,8397
295,,27136,-11008,-1008,384,384,544,-32,64,1920,528,448,8397
296,,27152,-15120,-1072,368,368,528,112,-48,1888,544,464,8397
297,,26480,-18848,-1040,368,400,544,256,-144,1824,528,432,8397
298,,24880,-21808,-1040,352,368,512,384,-256,1744,496,432,8397
299,,22512,-23952,-1024,384,368,512,544,-352,1680,512,448,8397
300,,19488,-25696,-1040,368,384,528,672,-448,1648,480,448,8397
301,,15920,-26448,-1040,384,384,528,832,-432,1584,512,464,8397
302,,11920,-26496,-976,384,384,560,928,-416,1488,560,496,8397
303,,7504,-25776,-1024,384,368,512,1008,-416,1328,512,464,8397
304,,2912,-24304,-992,384,368,560,1120,-336,1168,512,416,8397
305,,-1696,-21888,-1024,384,336,544,1184,-288,1024,512,448,8397
306,,-6240,-18928,-1008,400,368,528,1248,-128,880,512,448,8397
307,,-10544,-15360,-1024,352,352,560,1264,-48,720,512,448,8397
308,,-14624,-11328,-1008,352,368,512,1280,64,608,512,496,8397
309,,-18272,-6832,-1024,368,368,544,1248,160,544,544,480,8397
310,,-21312,-2144,-1040,384,384,560,1248,272,480,496,448,8397
311,,-23568,2480,-1104,368,352,528,1152,416,432,512,432,8397
312,,-25328,7216,-1136,400,384,560,1040,592,352,512,464,8397
313,,-26096,11456,-1104,384,368,512,912,704,320,544,480,8397
