,2215 循环水系统3#水泵电机,2000
8,7A,1D
1,UAB,,,V,0.0056274620146314,0,0,-2048,2047,1,1,S
2,UBC,,,V,0.00560852495793606,0,0,-2048,2047,1,1,S
3,3U0,,,V,0.00562113546936481,0,0,-2048,2047,1,1,S
4,IA,,,A,0.00423549343498518,0,0,-2048,2047,1,1,S
5,IB,,,A,0.00429184549356223,0,0,-2048,2047,1,1,S
6,IC,,,A,0.00427899015832264,0,0,-2048,2047,1,1,S
7,3I0,,,A,0.00106951871657754,0,0,-2048,2047,1,1,S
1,DI,,,1
0
1
1800,3744
05/04/2013,17:34:24.950000
05/04/2013,17:34:25.030000
ASCII
1
1,,16736,-25744,21808,-1056,-1568,-464,-1264,8205
2,,19600,-24272,22848,-1024,-1632,-496,-1264,8205
3,,21920,-21968,23120,-944,-1664,-512,-1248,8205
4,,23440,-19104,22784,-848,-1680,-528,-1248,8205
5,,24352,-15696,22160,-816,-1712,-608,-1264,8205
6,,24384,-11936,21200,-736,-1728,-640,-1296,8205
7,,23824,-7760,18928,-688,-1744,-704,-1280,8205
8,,22256,-3328,13888,-608,-1696,-752,-1280,8205
9,,19936,1200,9792,-592,-1664,-816,-1248,8205
10,,17312,5392,6400,-560,-1648,-896,-1264,8205
11,,13920,9648,2064,-528,-1600,-992,-1264,8205
12,,10048,13504,-2720,-496,-1552,-1040,-1296,8205
13,,5872,17008,-6880,-528,-1488,-1120,-1264,8205
14,,1552,19920,-10944,-512,-1424,-1168,-1280,8205
15,,-2816,22144,-14672,-544,-1344,-1216,-1264,8205
16,,-7088,23744,-17968,-576,-1264,-1264,-1280,8205
17,,-11360,24608,-20832,-656,-1216,-1280,-1296,8205
18,,-15216,24736,-23056,-688,-1168,-1296,-1248,8205
19,,-18816,24112,-23696,-720,-1072,-1280,-1248,8205
20,,-21552,22464,-23888,-816,-1040,-1312,-1248,8205
21,,-23920,20336,-24976,-848,-992,-1248,-1280,8205
22,,-25424,17456,-25056,-912,-944,-1200,-1280,8205
23,,-26368,14016,-24496,-992,-944,-1152,-1264,8205
24,,-26384,10272,-23600,-1072,-960,-1136,-1264,8205
25,,-25808,6144,-21008,-1120,-944,-1072,-1280,8205
26,,-24224,1680,-15808,-1152,-960,-992,-1264,8205
27,,-21968,-2880,-11872,-1232,-992,-928,-1280,8205
28,,-19264,-7136,-8416,-1264,-1024,-864,-1264,8205
29,,-15904,-11456,-4064,-1296,-1056,-800,-1264,8205
30,,-12064,-15280,640,-1280,-1104,-736,-1264,8205
31,,-7952,-18752,4864,-1280,-1168,-640,-1264,8205
32,,-3648,-21712,8768,-1280,-1216,-592,-1264,8205
33,,816,-23904,12624,-1264,-1296,-560,-1248,8205
34,,5168,-25424,15808,-1232,-1376,-528,-1264,8205
35,,9376,-26352,18640,-1200,-1440,-496,-1280,8205
36,,13376,-26448,20960,-1136,-1488,-464,-1232,8205
37,,16848,-25776,21248,-1088,-1584,-480,-1280,8205
38,,19504,-24128,20816,-1056,-1648,-512,-1296,8205
39,,21920,-21904,22288,-944,-1664,-512,-1248,8205
40,,23536,-19104,22928,-880,-1680,-544,-1264,8205
41,,24320,-15600,22304,-816,-1728,-624,-1264,8205
42,,24400,-11888,21248,-720,-1744,-656,-1264,8205
43,,23776,-7632,17616,-720,-1728,-736,-1296,8205
44,,22096,-3136,13216,-640,-1728,-800,-1296,8205
45,,19984,1088,9984,-624,-1696,-880,-1296,8205
46,,17152,5488,6016,-544,-1664,-912,-1296,8205
47,,13760,9776,1440,-528,-1600,-1008,-1312,8205
48,,10016,13568,-2864,-528,-1568,-1088,-1280,8205
49,,5824,17104,-7296,-512,-1520,-1104,-1264,8205
50,,1472,20000,-11200,-528,-1424,-1136,-1280,8205
51,,-2896,22192,-14880,-560,-1376,-1216,-1296,8205
52,,-7152,23744,-18112,-592,-1312,-1248,-1280,8205
53,,-11408,24624,-21168,-608,-1216,-1264,-1248,8205
54,,-15328,24736,-23360,-688,-1168,-1312,-1264,8205
55,,-18880,24096,-23664,-736,-1072,-1296,-1248,8205
56,,-21616,22432,-23952,-784,-1008,-1264,-1248,8205
57,,-23904,20256,-24896,-880,-1008,-1280,-1264,8205
58,,-25456,17360,-24928,-928,-992,-1216,-1296,8205
59,,-26368,13952,-24368,-1008,-944,-1184,-1264,8205
60,,-26368,10176,-23648,-1056,-928,-1120,-1264,8205
61,,-25728,6016,-21520,-1120,-896,-1040,-1232,8205
62,,-24256,1664,-16320,-1168,-944,-1008,-1264,8205
63,,-21840,-3008,-11488,-1216,-976,-928,-1264,8205
64,,-19232,-7136,-8112,-1296,-1008,-864,-1280,8205
65,,-15840,-11488,-4208,-1280,-1056,-784,-1264,8205
66,,-12016,-15360,336,-1312,-1136,-736,-1264,8205
67,,-7872,-18880,4944,-1312,-1152,-656,-1264,8205
68,,-3504,-21712,9136,-1280,-1248,-576,-1280,8205
69,,912,-23952,12688,-1264,-1328,-544,-1264,8205
70,,5264,-25504,15840,-1232,-1376,-496,-1280,8205
71,,9488,-26368,18688,-1184,-1440,-448,-1264,8205
72,,13408,-26512,21056,-1152,-1536,-496,-1296,8205
73,,16816,-25664,21728,-1072,-1584,-480,-1280,8205
74,,19744,-24224,22832,-928,-1600,-448,-1280,8205
75,,22032,-21888,23184,-928,-1664,-528,-1248,8205
76,,23504,-18944,22800,-864,-1696,-544,-1264,8205
77,,24384,-15552,22224,-800,-1728,-592,-1264,8205
78,,24384,-11776,21376,-736,-1744,-656,-1264,8205
79,,23728,-7536,19584,-704,-1712,-704,-1280,8205
80,,22368,-3312,14880,-608,-1728,-768,-1280,8205
81,,19760,1520,8960,-592,-1680,-848,-1280,8205
82,,17168,5488,5760,-544,-1632,-912,-1264,8205
83,,13792,9776,1968,-512,-1584,-992,-1280,8205
84,,9920,13664,-2928,-496,-1536,-1072,-1296,8205
85,,5632,17200,-7328,-528,-1504,-1120,-1264,8205
86,,1360,20032,-11408,-512,-1424,-1184,-1280,8205
87,,-2928,22208,-15120,-544,-1360,-1216,-1280,8205
88,,-7280,23760,-18464,-592,-1296,-1280,-1312,8205
89,,-11488,24592,-21424,-608,-1232,-1296,-1264,8205
90,,-15408,24768,-23584,-656,-1152,-1280,-1264,8205
91,,-18928,24048,-23968,-752,-1104,-1312,-1264,8205
92,,-21664,22384,-24624,-784,-1056,-1280,-1248,8205
93,,-18848,17616,-13152,-784,-1152,-1280,-1280,8205
94,,-24688,16720,-19968,-816,-1088,-1216,-1280,8205
95,,-25264,13696,-22144,-848,-1120,-1152,-1248,8205
96,,-26000,9568,-18576,-944,-1120,-1104,-1264,8205
97,,-25664,6080,-17008,-928,-1120,-1040,-1248,8205
98,,-24912,1792,-14800,-976,-1088,-1008,-1376,8205
99,,-23232,-2224,-11664,-1088,-1072,-912,-1264,8205
100,,-20672,-6496,-8448,-1184,-1088,-832,-1296,8205
101,,-17520,-10592,-4416,-1232,-1104,-768,-1264,8205
102,,-13664,-14448,-496,-1296,-1120,-704,-1264,8205
103,,-9344,-18112,3520,-1328,-1168,-624,-1280,8205
104,,-4688,-21232,8224,-1328,-1232,-592,-1280,8205
105,,400,-23760,11152,-1312,-1296,-544,-1296,8205
106,,4400,-24976,11584,-1312,-1344,-512,-1312,8205
107,,7968,-25520,14528,-1248,-1376,-496,-1264,8205
108,,11984,-25664,17600,-1248,-1408,-512,-1280,8205
109,,8912,-21888,7088,-1280,-1376,-496,-1264,8205
110,,12368,-20272,5824,-1344,-1328,-528,-1264,8205
111,,13152,-17952,5344,-1424,-1232,-528,-1328,8205
112,,14736,-14720,2576,-1472,-1072,-512,-1280,8205
113,,15376,-11776,400,-1600,-976,-592,-1264,8205
114,,16192,-8320,-1632,-1696,-816,-656,-1312,8205
115,,16464,-4800,-3520,-1776,-688,-736,-1312,8205
116,,16368,-4592,-832,-1856,-560,-672,-1296,8205
117,,15536,-1904,-1344,-1952,-512,-672,-1280,8205
118,,14448,224,-1568,-2032,-480,-624,-1296,8205
119,,12992,2768,-1632,-2112,-528,-544,-1296,8205
120,,10608,5392,-1520,-2176,-544,-464,-1312,8205
121,,8416,7856,-1552,-2192,-608,-368,-1280,8205
122,,5840,10096,-1392,-2224,-688,-240,-1296,8205
123,,3440,11952,-1264,-2224,-752,-96,-1280,8205
124,,832,13520,-1248,-2192,-880,-32,-1296,8205
125,,-1728,14608,-992,-2160,-1056,16,-1280,8205
126,,-4256,15280,-944,-2048,-1184,128,-1296,8205
127,,-6960,15584,-528,-1952,-1360,160,-1296,8205
128,,-9344,15296,-256,-1856,-1472,192,-1296,8205
129,,-11520,14672,-416,-1728,-1616,224,-1264,8205
130,,-13184,13776,-1408,-1584,-1760,208,-1264,8205
131,,-14496,12576,-1344,-1424,-1888,208,-1264,8205
132,,-15360,10848,-1232,-1232,-2016,176,-1248,8205
133,,-15904,8784,-1648,-1104,-2080,32,-1248,8205
134,,-16000,6448,-2032,-944,-2144,-48,-1248,8205
135,,-15376,3744,-1712,-800,-2208,-112,-1248,8205
136,,-14608,1072,-1520,-640,-2208,-256,-1248,8205
137,,-13520,-1488,-1456,-544,-2240,-368,-1264,8205
138,,-12080,-3968,-1328,-416,-2208,-496,-1248,8205
139,,-10224,-6640,-720,-320,-2144,-624,-1248,8205
140,,-7904,-9328,400,-240,-2112,-752,-1264,8205
141,,-5344,-11024,-144,-192,-2032,-880,-1248,8205
142,,-2672,-12752,0,-176,-1936,-1024,-1248,8205
143,,-272,-14080,32,-144,-1824,-1104,-1264,8205
144,,2128,-15072,112,-128,-1696,-1248,-1248,8205
145,,4432,-15504,-192,-176,-1568,-1312,-1280,8205
146,,6688,-15536,-416,-272,-1472,-1408,-1280,8205
147,,8752,-14960,-592,-304,-1328,-1488,-1280,8205
148,,10688,-14032,-944,-384,-1200,-1536,-1280,8205
149,,12240,-12944,-1120,-464,-1088,-1584,-1264,8205
150,,13200,-11408,-960,-544,-992,-1568,-1264,8205
151,,13872,-9696,-752,-656,-880,-1568,-1248,8205
152,,13984,-7552,-656,-736,-816,-1552,-1264,8205
153,,13360,-5040,-736,-912,-768,-1520,-1280,8205
154,,12560,-2576,-784,-976,-672,-1440,-1248,8205
155,,11408,-64,-800,-1088,-640,-1360,-1264,8205
156,,9920,2768,-1072,-1200,-672,-1312,-1296,8205
157,,8112,5536,-1872,-1296,-624,-1232,-1248,8205
158,,6064,7664,-1952,-1376,-640,-1120,-1312,8205
159,,3632,9504,-2160,-1424,-704,-1072,-1312,8205
160,,1280,11040,-2128,-1472,-736,-944,-1280,8205
161,,-1264,12256,-1872,-1520,-816,-848,-1280,8205
162,,-3792,13152,-1840,-1504,-896,-736,-1264,8205
163,,-6336,13648,-1472,-1520,-992,-656,-1296,8205
164,,-8544,13792,-1456,-1488,-1056,-576,-1264,8205
165,,-10448,13344,-1472,-1456,-1184,-464,-1280,8205
166,,-12112,12592,-1376,-1408,-1264,-416,-1280,8205
167,,-13456,11504,-1232,-1376,-1392,-368,-1248,8205
168,,-14416,9984,-1280,-1280,-1488,-320,-1248,8205
169,,-15504,8144,-1760,-1232,-1600,-320,-1264,8205
170,,-15712,6096,-1776,-1120,-1648,-256,-1264,8205
171,,-15392,3792,-1632,-1040,-1776,-336,-1280,8205
172,,-14672,1456,-1424,-960,-1840,-336,-1280,8205
173,,-13312,-992,-1392,-832,-1904,-368,-1264,8205
174,,-11920,-3472,-1264,-752,-1936,-448,-1280,8205
175,,-9888,-6496,32,-672,-2000,-496,-1264,8205
176,,-7904,-8592,-112,-576,-2016,-560,-1264,8205
177,,-5536,-10720,-304,-464,-2032,-640,-1264,8205
178,,-3088,-12416,-416,-384,-2032,-720,-1248,8205
179,,-768,-13456,-912,-336,-1984,-848,-1280,8205
180,,1312,-14496,-528,-288,-1888,-944,-1280,8205
181,,3728,-14912,-624,-240,-1888,-1024,-1248,8205
182,,6000,-15056,-1008,-208,-1776,-1104,-1280,8205
183,,7904,-14656,-832,-208,-1696,-1248,-1280,8205
184,,9744,-13888,-688,-224,-1552,-1296,-1232,8205
185,,11232,-13040,-784,-208,-1456,-1424,-1296,8205
186,,12352,-11760,-816,-304,-1392,-1472,-1280,8205
187,,13136,-10032,-448,-336,-1280,-1504,-1264,8205
188,,13328,-8048,-448,-368,-1200,-1552,-1264,8205
189,,12912,-5712,-672,-432,-1088,-1584,-1264,8205
190,,12288,-3280,-896,-560,-1024,-1584,-1280,8205
191,,11376,-944,-928,-624,-896,-1536,-1264,8205
192,,10064,1504,-1136,-736,-816,-1520,-1280,8205
193,,8336,4784,-2432,-816,-768,-1520,-1296,8205
194,,6384,6704,-2336,-912,-704,-1504,-1264,8205
195,,3936,8688,-2144,-1024,-704,-1440,-1264,8205
196,,1552,10304,-2032,-1120,-640,-1360,-1280,8205
197,,-832,11728,-2064,-1184,-656,-1280,-1280,8205
198,,-3040,12384,-1840,-1264,-656,-1168,-1280,8205
199,,-5296,12960,-1664,-1328,-704,-1104,-1264,8205
200,,-7456,13136,-1632,-1424,-752,-992,-1280,8205
201,,-9376,12848,-1488,-1392,-816,-864,-1264,8205
202,,-11248,12160,-1184,-1440,-928,-768,-1248,8205
203,,-12640,11056,-1168,-1472,-992,-672,-1296,8205
204,,-13936,9872,-1184,-1488,-1088,-608,-1296,8205
205,,-15024,8304,-2080,-1456,-1168,-480,-1264,8205
206,,-15040,6320,-1904,-1424,-1312,-448,-1248,8205
207,,-14912,4128,-1968,-1392,-1424,-336,-1264,8205
208,,-14000,1712,-1888,-1312,-1488,-304,-1264,8205
209,,-13072,-640,-1712,-1248,-1632,-288,-1296,8205
210,,-11696,-3024,-1520,-1168,-1696,-272,-1248,8205
211,,-10064,-6176,-464,-1008,-1824,-272,-1280,8205
212,,-8224,-8160,-464,-960,-1936,-272,-1264,8205
213,,-6000,-10000,-656,-848,-2016,-288,-1296,8205
214,,-3840,-11376,-832,-736,-2032,-352,-1264,8205
215,,-1440,-12720,-736,-608,-2080,-416,-1232,8205
216,,800,-13728,-768,-528,-2128,-528,-1280,8205
217,,8640,-19952,-4736,-400,-2176,-592,-1312,8205
218,,14000,-23248,-14288,-160,-2400,-544,-1232,8205
219,,13904,-20864,-9552,48,-2544,-544,-1248,8205
220,,16880,-21616,-11904,192,-2736,-592,-1264,8205
221,,17136,-19632,-11344,352,-2832,-624,-1264,8205
222,,17376,-17504,-10704,432,-2896,-656,-1280,8205
223,,16688,-14496,-9696,496,-2864,-736,-1248,8205
224,,15328,-10688,-8240,496,-2800,-768,-1264,8205
225,,13696,-6896,-6848,432,-2688,-864,-1264,8205
226,,16992,2128,-6688,512,-2496,-1120,-1248,8205
227,,13328,3824,-6528,608,-2336,-1392,-1264,8205
228,,12272,8320,-6368,624,-2096,-1632,-1248,8205
229,,8736,11216,-6256,608,-1872,-1888,-1296,8205
230,,5728,14544,-6128,592,-1632,-2096,-1248,8205
231,,1136,17216,-5984,560,-1408,-2240,-1248,8205
232,,-3808,19600,-5856,400,-1120,-2400,-1280,8205
233,,-7952,20720,-5712,176,-832,-2432,-1264,8205
234,,-11376,21424,-5600,-64,-560,-2480,-1264,8205
235,,-14288,21200,-5536,-320,-336,-2448,-1264,8205
236,,-16624,20400,-5408,-592,-96,-2432,-1280,8205
237,,-18704,18928,-5312,-848,16,-2352,-1264,8205
238,,-20496,17040,-5216,-1072,160,-2192,-1264,8205
239,,-22096,14544,-5136,-1360,208,-2032,-1280,8205
240,,-23536,11824,-5040,-1584,288,-1792,-1264,8205
241,,-24048,8512,-4896,-1872,272,-1568,-1280,8205
242,,-23328,4800,-4800,-2096,224,-1280,-1264,8205
243,,-21696,752,-4656,-2272,176,-992,-1280,8205
244,,-18944,-3376,-4592,-2400,32,-704,-1248,8205
245,,-15808,-7520,-4464,-2512,-176,-448,-1280,8205
246,,-12768,-11008,-4384,-2480,-400,-176,-1248,8205
247,,-9536,-14384,-4336,-2480,-656,32,-1248,8205
248,,-6304,-17184,-4240,-2432,-944,272,-1280,8205
249,,-2768,-19584,-4144,-2336,-1184,416,-1248,8205
250,,848,-21248,-4032,-2224,-1488,544,-1296,8205
251,,4944,-22480,-3984,-2048,-1728,624,-1264,8205
252,,9024,-23312,-3872,-1808,-2000,672,-1280,8205
253,,13456,-23552,-3760,-1552,-2208,656,-1248,8205
254,,16256,-22816,-3648,-1264,-2432,592,-1248,8205
255,,18768,-21392,-3584,-976,-2624,496,-1264,8205
256,,19968,-19040,-3520,-704,-2768,368,-1264,8205
257,,20656,-16224,-3408,-416,-2816,192,-1248,8205
258,,20816,-13136,-3376,-176,-2864,-32,-1248,8205
259,,20768,-9776,-3280,48,-2816,-240,-1248,8205
260,,20336,-6048,-3248,240,-2800,-528,-1248,8205
261,,19504,-2112,-3168,400,-2688,-768,-1232,8205
262,,17616,1712,-3104,528,-2576,-1040,-1264,8205
263,,15120,5456,-3040,656,-2416,-1328,-1264,8205
264,,11776,9312,-2960,720,-2192,-1568,-1216,8205
265,,7824,12880,-2912,672,-1984,-1824,-1248,8205
266,,3616,16064,-2832,624,-1712,-2016,-1248,8205
267,,-368,18576,-2784,512,-1440,-2192,-1232,8205
268,,-4320,20368,-2720,368,-1168,-2336,-1264,8205
269,,-7664,21344,-2656,176,-896,-2400,-1264,8205
270,,-10992,21760,-2640,-32,-688,-2464,-1280,8205
271,,-14080,21568,-2560,-240,-432,-2448,-1280,8205
272,,-17200,20880,-2512,-480,-240,-2400,-1264,8205
273,,-20032,19472,-2432,-736,-64,-2320,-1264,8205
274,,-22464,17424,-2384,-992,64,-2160,-1280,8205
275,,-23728,14784,-2336,-1296,128,-1984,-1280,8205
276,,-24384,11664,-2272,-1568,192,-1760,-1280,8205
277,,-23872,8128,-2160,-1792,192,-1584,-1264,8205
278,,-22768,4176,-2096,-1968,144,-1312,-1280,8205
279,,-20928,112,-2096,-2112,48,-1040,-1280,8205
280,,-18720,-3968,-2000,-2240,-96,-800,-1280,8205
281,,-16192,-7776,-1936,-2288,-272,-560,-1248,8205
282,,-13424,-11312,-1856,-2320,-464,-288,-1280,8205
283,,-10224,-14592,-1856,-2368,-704,-144,-1264,8205
284,,-6512,-17600,-1792,-2304,-896,96,-1264,8205
285,,-2320,-20096,-1696,-2224,-1120,240,-1248,8205
286,,2160,-22192,-1648,-2144,-1408,368,-1296,8205
287,,6544,-23360,-1568,-1984,-1632,432,-1296,8205
288,,10336,-23936,-1536,-1712,-1872,464,-1296,8205
289,,13536,-23744,-1456,-1488,-2112,480,-1280,8205
290,,16192,-22864,-1424,-1280,-2272,416,-1232,8205
291,,18256,-21168,-1344,-1024,-2416,352,-1264,8205
292,,19872,-18992,-1264,-816,-2528,224,-1264,8205
293,,20944,-16272,-1280,-592,-2608,64,-1264,8205
294,,21648,-13296,-1232,-384,-2624,-96,-1280,8205
295,,21792,-9856,-1200,-208,-2640,-288,-1280,8205
296,,21200,-6064,-1168,16,-2608,-512,-1232,8205
297,,19808,-1888,-1136,128,-2512,-720,-1232,8205
298,,17440,2160,-1136,272,-2400,-944,-1264,8205
299,,14432,6192,-1056,336,-2272,-1168,-1248,8205
300,,11024,9984,-1056,368,-2080,-1392,-1248,8205
301,,7456,13408,-992,400,-1872,-1552,-1248,8205
302,,3776,16336,-1008,336,-1680,-1728,-1232,8205
303,,0,18656,-976,272,-1456,-1840,-1264,8205
304,,-3824,20464,-928,144,-1264,-1968,-1248,8205
305,,-7616,21584,-912,64,-1056,-2032,-1248,8205
306,,-11376,22064,-912,-128,-912,-2096,-1280,8205
307,,-15072,22064,-880,-256,-720,-2096,-1264,8205
308,,-18320,21328,-880,-528,-528,-2048,-1280,8205
309,,-20912,19808,-784,-704,-400,-1984,-1232,8205
310,,-22784,17520,-800,-912,-288,-1904,-1248,8205
311,,-23696,14640,-768,-1184,-240,-1776,-1312,8205
312,,-23904,11376,-704,-1328,-192,-1616,-1264,8205
313,,-23632,7808,-704,-1456,-160,-1440,-1280,8205
314,,-22848,4016,-688,-1568,-224,-1264,-1312,8205
315,,-21408,16,-672,-1760,-288,-1088,-1280,8205
316,,-19408,-4016,-608,-1856,-368,-896,-1264,8205
317,,-16768,-7888,-592,-1920,-480,-672,-1248,8205
318,,-13584,-11488,-576,-1968,-624,-528,-1264,8205
319,,-9888,-15040,-560,-1984,-752,-384,-1264,8205
320,,-5808,-18160,-528,-1968,-912,-256,-1264,8205
321,,-1472,-20784,-480,-1872,-1104,-96,-1248,8205
322,,2752,-22624,-464,-1840,-1312,-32,-1280,8205
323,,6768,-23632,-416,-1680,-1472,48,-1264,8205
324,,10160,-23984,-384,-1568,-1648,64,-1280,8205
325,,13328,-23728,-416,-1424,-1776,96,-1248,8205
326,,16128,-22896,-432,-1264,-1920,48,-1280,8205
327,,18592,-21376,-384,-1088,-2048,0,-1264,8205
328,,20592,-19168,-352,-944,-2096,-48,-1248,8205
329,,21856,-16464,-368,-784,-2160,-160,-1264,8205
330,,22368,-13392,-352,-608,-2224,-288,-1264,8205
331,,22128,-9744,-336,-464,-2256,-384,-1280,8205
332,,21120,-5744,-304,-352,-2240,-528,-1280,8205
333,,19456,-1552,-336,-240,-2208,-720,-1280,8205
334,,17008,2688,-336,-112,-2128,-816,-1248,8205
335,,14304,6624,-320,-96,-2016,-960,-1264,8205
336,,11120,10288,-304,-64,-1888,-1136,-1264,8205
337,,7696,13680,-304,-32,-1808,-1232,-1264,8205
338,,4032,16512,-304,-64,-1664,-1392,-1264,8205
339,,-32,18960,-304,-48,-1488,-1456,-1248,8205
340,,-4272,20848,-288,-144,-1408,-1552,-1280,8205
341,,-8512,22064,-288,-224,-1280,-1632,-1296,8205
342,,-12320,22576,-272,-320,-1168,-1664,-1248,8205
343,,-15808,22448,-288,-416,-1008,-1680,-1280,8205
344,,-18704,21520,-240,-528,-928,-1648,-1248,8205
345,,-21024,19760,-288,-704,-800,-1648,-1280,8205
346,,-22736,17360,-272,-800,-736,-1600,-1296,8205
347,,-23760,14400,-256,-944,-656,-1568,-1264,8205
348,,-24176,11184,-272,-1056,-624,-1472,-1280,8205
349,,-24144,7584,-256,-1184,-624,-1392,-1312,8205
350,,-23344,3888,-208,-1248,-592,-1232,-1264,8205
351,,-21808,-192,-256,-1376,-624,-1152,-1296,8205
352,,-19440,-4352,-192,-1440,-656,-1024,-1248,8205
353,,-16464,-8448,-240,-1520,-704,-912,-1264,8205
354,,-13024,-12176,-176,-1536,-752,-784,-1280,8205
355,,-9232,-15760,-256,-1568,-880,-704,-1280,8205
356,,-5360,-18688,-224,-1584,-976,-608,-1280,8205
357,,-1296,-21136,-224,-1568,-1088,-496,-1280,8205
358,,2736,-22880,-208,-1552,-1200,-432,-1280,8205
359,,6848,-23776,-240,-1504,-1296,-400,-1264,8205
360,,10416,-24112,-208,-1424,-1392,-336,-1280,8205
361,,13840,-23920,-224,-1360,-1440,-320,-1264,8205
362,,16880,-23104,-224,-1280,-1600,-320,-1296,8205
363,,19344,-21504,-240,-1152,-1680,-320,-1296,8205
364,,21136,-19264,-224,-1056,-1760,-368,-1280,8205
365,,22144,-16352,-192,-960,-1792,-352,-1216,8205
366,,22368,-13104,-192,-864,-1824,-416,-1280,8205
367,,21888,-9248,-224,-800,-1872,-464,-1264,8205
368,,20976,-5216,-224,-720,-1904,-544,-1264,8205
369,,19408,-1056,-224,-624,-1856,-624,-1232,8205
370,,17152,3024,-272,-576,-1872,-688,-1312,8205
371,,14400,6944,-224,-512,-1840,-784,-1264,8205
372,,11168,10592,-240,-448,-1792,-880,-1280,8205
373,,7456,14032,-256,-416,-1776,-960,-1280,8205
374,,3504,17008,-256,-400,-1712,-1040,-1296,8205
375,,-784,19472,-224,-384,-1648,-1136,-1248,8205
376,,-5024,21328,-256,-368,-1536,-1200,-1248,8205
377,,-9152,22512,-224,-384,-1456,-1264,-1232,8205
378,,-12752,22816,-224,-448,-1392,-1296,-1248,8205
379,,-16016,22496,-272,-512,-1296,-1328,-1248,8205
380,,-18896,21488,-240,-544,-1216,-1360,-1280,8205
381,,-21248,19664,-240,-624,-1136,-1392,-1280,8205
382,,-23040,17248,-272,-656,-1072,-1376,-1280,8205
383,,-24240,14288,-256,-736,-1024,-1376,-1280,8205
