,2104 3#¡¡µªÍ¸µç»ú,2000
8,7A,1D
1,UAB,,,V,0.00564334085778781,0,0,-2048,2047,1,1,S
2,UBC,,,V,0.00569151963574274,0,0,-2048,2047,1,1,S
3,3U0,,,V,0.00569151963574274,0,0,-2048,2047,1,1,S
4,IA,,,A,0.00438404208680403,0,0,-2048,2047,1,1,S
5,IB,,,A,0.00433651344319167,0,0,-2048,2047,1,1,S
6,IC,,,A,0.00436490615451768,0,0,-2048,2047,1,1,S
7,3I0,,,A,0.001085776330076,0,0,-2048,2047,1,1,S
1,DI,,,1
0
1
1800,3744
24/09/2012,17:41:9.695000
24/09/2012,17:41:9.775000
ASCII
1
1,,9168,-26000,-15744,-416,-1040,-48,-352,8199
2,,12544,-26720,-16880,-352,-1216,-16,-384,8199
3,,15904,-26256,-17216,-224,-1344,32,-384,8199
4,,18688,-25312,-17280,-128,-1424,48,-384,8199
5,,20752,-23536,-16656,-16,-1568,32,-400,8199
6,,22080,-21056,-15328,48,-1664,0,-400,8199
7,,22720,-18128,-13872,144,-1648,16,-368,8199
8,,23648,-13776,-11984,192,-1664,-80,-384,8199
9,,22560,-10464,-9680,208,-1648,-128,-400,8199
10,,21456,-5840,-7136,256,-1568,-208,-400,8199
11,,19712,-1296,-4432,256,-1504,-336,-368,8199
12,,17152,3136,-1472,256,-1392,-400,-416,8199
13,,14272,7920,1552,208,-1264,-512,-384,8199
14,,10656,11888,4752,160,-1136,-608,-368,8199
15,,6704,15936,7824,144,-976,-704,-368,8199
16,,2400,19440,10656,64,-800,-800,-384,8199
17,,-2176,21888,12576,16,-672,-896,-368,8199
18,,-6624,23616,11296,-144,-496,-992,-384,8199
19,,-10640,25312,12368,-256,-320,-1008,-352,8199
20,,-15168,25984,12544,-336,-144,-1040,-336,8199
21,,-19200,25856,12624,-464,0,-1056,-336,8199
22,,-12352,16880,3376,-464,32,-1056,-304,8199
23,,-12144,14736,-1104,-480,-160,-928,-416,8199
24,,-19184,16880,1472,-528,-208,-832,-368,8199
25,,-18048,11568,576,-544,-288,-736,-384,8199
26,,-21648,11968,-304,-592,-400,-624,-336,8199
27,,-21904,8192,-640,-592,-432,-528,-352,8199
28,,-22432,6208,-864,-672,-512,-496,-400,8199
29,,-22496,3632,-1136,-688,-496,-400,-384,8199
30,,-20416,-208,-1568,-688,-512,-352,-400,8199
31,,-18816,-3296,-1520,-704,-544,-352,-400,8199
32,,-15216,-7648,-1696,-688,-560,-272,-384,8199
33,,-11488,-11376,-2240,-688,-608,-240,-368,8199
34,,-8192,-14112,-2064,-672,-672,-240,-384,8199
35,,-4400,-16848,-1952,-640,-688,-224,-400,8199
36,,-1056,-18320,-2560,-592,-736,-256,-400,8199
37,,2272,-19504,-2480,-560,-752,-256,-368,8199
38,,5760,-20352,-2224,-512,-768,-288,-384,8199
39,,9328,-20688,-2080,-464,-736,-320,-368,8199
40,,13344,-21040,-2032,-416,-768,-320,-384,8199
41,,19088,-20656,-1280,-352,-800,-416,-416,8199
42,,21008,-19344,976,-208,-816,-480,-368,8199
43,,21472,-17440,1056,-160,-864,-528,-352,8199
44,,23232,-14544,128,-64,-880,-592,-384,8199
45,,22624,-11344,944,-16,-880,-656,-400,8199
46,,22240,-7872,1408,32,-848,-720,-384,8199
47,,20864,-4304,1344,64,-800,-800,-416,8199
48,,19440,-1024,1472,64,-800,-880,-416,8199
49,,17696,2528,1392,80,-736,-816,-352,8199
50,,15280,5680,1280,64,-704,-896,-384,8199
51,,12544,8688,1456,64,-736,-928,-368,8199
52,,8880,11952,1056,64,-656,-896,-352,8199
53,,3936,14976,784,32,-688,-928,-368,8199
54,,-2208,17584,48,-16,-656,-944,-384,8199
55,,-6592,19312,-192,-32,-592,-944,-384,8199
56,,-9904,20496,-48,-128,-592,-928,-400,8199
57,,-12464,20608,1280,-160,-544,-864,-400,8199
58,,-14704,20416,2032,-192,-496,-816,-400,8199
59,,-18816,19616,-1600,-336,-480,-736,-368,8199
60,,-21024,17920,-3152,-528,-432,-608,-400,8199
61,,-22512,16384,-1056,-608,-480,-560,-384,8199
62,,-26912,14000,-4400,-768,-416,-448,-352,8199
63,,-26304,11376,-7008,-896,-352,-320,-368,8199
64,,-26432,8240,-7360,-1024,-320,-272,-352,8199
65,,-20704,4560,-9984,-1072,-304,-160,-400,8199
66,,-19616,1024,-2480,-1040,-400,-160,-384,8199
67,,-18144,-2880,-2944,-1024,-400,-80,-352,8199
68,,-13152,-6656,-2784,-944,-496,-32,-336,8199
69,,-12624,-9456,-2832,-880,-576,-48,-368,8199
70,,-8768,-12464,-3440,-880,-624,-48,-384,8199
71,,-5840,-15136,-3760,-816,-624,-32,-368,8199
72,,-2608,-17168,-3920,-800,-672,-48,-384,8199
73,,1376,-18976,-4016,-736,-736,-64,-400,8199
74,,5488,-20432,-3216,-704,-752,-80,-400,8199
75,,10288,-21248,-3568,-640,-800,-160,-400,8199
76,,15056,-21344,-3696,-528,-864,-192,-416,8199
77,,20464,-20528,768,-336,-912,-272,-352,8199
78,,19648,-18816,2224,-176,-992,-384,-368,8199
79,,22048,-16992,1424,-112,-944,-480,-368,8199
80,,23200,-14336,2112,32,-1024,-576,-400,8199
81,,22912,-11568,2784,96,-992,-656,-384,8199
82,,23664,-8608,3968,176,-960,-784,-384,8199
83,,22368,-5360,4064,272,-976,-848,-384,8199
84,,20320,-1856,4368,320,-928,-880,-352,8199
85,,19312,1536,3280,352,-928,-960,-384,8199
86,,16112,5376,2864,336,-880,-1040,-416,8199
87,,12832,8752,5168,336,-816,-1040,-352,8199
88,,9440,11840,4528,336,-800,-1120,-352,8199
89,,4528,14992,3696,320,-752,-1120,-416,8199
90,,-304,17152,2928,224,-672,-1104,-400,8199
91,,-4832,18608,1472,144,-624,-1104,-368,8199
92,,-9104,19968,1440,64,-592,-1072,-384,8199
93,,-11744,20464,880,-32,-544,-1024,-384,8199
94,,-15696,20736,1216,-128,-480,-928,-352,8199
95,,-18432,20000,-736,-256,-400,-848,-368,8199
96,,-20880,18720,-2912,-432,-384,-784,-352,8199
97,,-24464,16880,-4416,-576,-320,-640,-400,8199
98,,-25824,14416,-6368,-736,-240,-512,-352,8199
99,,-26176,11680,-8000,-880,-256,-432,-352,8199
100,,-25776,8432,-8736,-1024,-224,-288,-352,8199
101,,-24288,5120,-9552,-1168,-208,-224,-400,8199
102,,-21744,1488,-8000,-1216,-224,-112,-368,8199
103,,-19840,-1936,-9072,-1248,-272,-16,-352,8199
104,,-17184,-5808,-8528,-1280,-336,48,-368,8199
105,,-13728,-9712,-7200,-1264,-416,80,-368,8199
106,,-10144,-12640,-7616,-1264,-464,128,-352,8199
107,,-5712,-16080,-7376,-1216,-544,176,-352,8199
108,,304,-17968,-7136,-1056,-624,160,-432,8199
109,,2432,-19792,-2544,-960,-752,160,-352,8199
110,,7088,-20256,-4640,-864,-816,112,-384,8199
111,,11568,-21136,-3088,-688,-880,48,-352,8199
112,,15856,-21088,32,-512,-976,-32,-400,8199
113,,20528,-20240,6960,-352,-1056,-144,-384,8199
114,,21504,-18832,7744,-80,-1104,-240,-368,8199
115,,23712,-17072,7840,64,-1184,-400,-416,8199
116,,25616,-14896,10864,224,-1264,-576,-416,8199
117,,25696,-12176,11792,416,-1296,-736,-400,8199
118,,25648,-9024,11792,592,-1312,-832,-400,8199
119,,24480,-5696,13008,768,-1296,-960,-352,8199
120,,22192,-2176,12592,816,-1344,-1088,-416,8199
121,,19520,1488,11888,912,-1248,-1216,-384,8199
122,,16144,4944,11104,928,-1184,-1264,-384,8199
123,,10512,10960,9344,896,-1120,-1392,-400,8199
124,,1152,18912,7024,832,-864,-1504,-352,8199
125,,-4704,18672,4592,736,-688,-1648,-400,8199
126,,-9600,22160,4288,608,-464,-1712,-400,8199
127,,-14112,24816,4432,464,-288,-1808,-400,8199
128,,-16384,24032,4672,272,-48,-1824,-384,8199
129,,-19360,24912,5008,112,128,-1808,-384,8199
130,,-21120,23168,5536,-128,320,-1792,-384,8199
131,,-21744,20704,5984,-336,416,-1648,-352,8199
132,,-22560,18784,6400,-544,496,-1536,-352,8199
133,,-22656,15520,6672,-816,576,-1328,-352,8199
134,,-23680,12624,5872,-976,560,-1152,-352,8199
135,,-24640,9408,4864,-1168,560,-944,-336,8199
136,,-23712,4896,4032,-1312,464,-768,-352,8199
137,,-20080,-1184,2320,-1408,432,-528,-336,8199
138,,-16160,-7216,992,-1536,304,-368,-352,8199
139,,-13680,-11344,1344,-1568,144,-160,-352,8199
140,,-11184,-14528,1792,-1600,-80,64,-384,8199
141,,-8512,-16896,2368,-1584,-256,272,-368,8199
142,,-5712,-18736,2912,-1552,-512,416,-400,8199
143,,-2608,-19680,3424,-1408,-688,592,-368,8199
144,,1600,-21376,2944,-1312,-944,672,-352,8199
145,,6560,-23056,2208,-1152,-1120,704,-400,8199
146,,10944,-23568,1584,-976,-1328,736,-400,8199
147,,14672,-20656,-880,-752,-1488,688,-352,8199
148,,18256,-18112,-2416,-544,-1648,672,-352,8199
149,,21056,-16896,-2368,-320,-1792,544,-416,8199
150,,22896,-15248,-2080,-80,-1888,432,-368,8199
151,,24304,-13232,-1584,128,-1952,304,-352,8199
152,,24608,-10784,-992,352,-2000,128,-384,8199
153,,24224,-8160,-256,528,-1984,-96,-400,8199
154,,23232,-5504,432,688,-1888,-336,-400,8199
155,,21072,-2784,704,784,-1792,-544,-400,8199
156,,16288,1216,-1584,896,-1696,-800,-368,8199
157,,10176,6416,-5120,944,-1504,-1008,-400,8199
158,,6192,10592,-5888,960,-1344,-1200,-352,8199
159,,2464,14112,-6176,976,-1120,-1376,-368,8199
160,,-1520,17728,-6224,896,-928,-1552,-400,8199
161,,-5248,20640,-6016,816,-672,-1648,-336,8199
162,,-8608,22624,-5728,704,-448,-1792,-384,8199
163,,-11600,23968,-5280,528,-208,-1824,-368,8199
164,,-14016,24400,-4688,352,0,-1872,-384,8199
165,,-15808,23888,-4048,160,176,-1856,-352,8199
166,,-17344,22864,-3312,-96,336,-1792,-352,8199
167,,-18736,21104,-2784,-304,448,-1680,-320,8199
168,,-21696,18912,-3808,-528,592,-1536,-352,8199
169,,-24352,16128,-4704,-784,576,-1408,-400,8199
170,,-25392,12944,-4944,-992,608,-1216,-368,8199
171,,-25296,9392,-4896,-1168,624,-992,-352,8199
172,,-24432,5136,-4896,-1344,576,-800,-352,8199
173,,-22432,560,-4912,-1504,464,-560,-368,8199
174,,-19760,-3872,-4896,-1584,368,-288,-336,8199
175,,-16784,-8176,-4800,-1648,192,-96,-352,8199
176,,-13360,-11984,-4656,-1664,0,128,-352,8199
177,,-9808,-15264,-4512,-1616,-224,320,-352,8199
178,,-5776,-18336,-4512,-1584,-480,512,-368,8199
179,,-1520,-20736,-4496,-1472,-656,672,-352,8199
180,,2528,-22528,-4448,-1360,-928,736,-384,8199
181,,6976,-23904,-4416,-1232,-1120,784,-416,8199
182,,11216,-24624,-4336,-1008,-1376,816,-400,8199
183,,14944,-24576,-4224,-816,-1552,816,-384,8199
184,,18496,-23856,-4192,-576,-1696,752,-416,8199
185,,21152,-22112,-4128,-304,-1872,656,-400,8199
186,,22912,-19712,-4064,-96,-1984,480,-432,8199
187,,24128,-16752,-4000,128,-2048,336,-384,8199
188,,24528,-13216,-3920,352,-2048,144,-400,8199
189,,24304,-9488,-3888,528,-2064,-64,-400,8199
190,,23536,-5440,-3792,720,-1968,-304,-384,8199
191,,21952,-1312,-3776,864,-1888,-512,-400,8199
192,,19712,2752,-3680,960,-1744,-768,-400,8199
193,,16832,6944,-3664,1008,-1600,-1008,-384,8199
194,,13312,10944,-3584,1056,-1408,-1216,-400,8199
195,,9456,14496,-3504,1040,-1168,-1408,-368,8199
196,,5040,17952,-3456,976,-960,-1584,-400,8199
197,,496,20560,-3408,880,-688,-1712,-368,8199
198,,-3776,22400,-3344,752,-448,-1824,-368,8199
199,,-8016,23696,-3296,560,-256,-1904,-384,8199
200,,-11952,24192,-3200,368,16,-1888,-368,8199
201,,-15440,23920,-3200,160,192,-1904,-352,8199
202,,-18720,23088,-3168,-32,368,-1824,-368,8199
203,,-21472,21424,-3056,-320,496,-1808,-320,8199
204,,-23440,19136,-3024,-528,608,-1616,-336,8199
205,,-24976,16304,-2992,-752,656,-1440,-368,8199
206,,-25552,12848,-2960,-992,688,-1264,-368,8199
207,,-25360,9120,-2880,-1216,656,-1024,-368,8199
208,,-24464,5024,-2816,-1344,624,-800,-352,8199
209,,-22496,704,-2736,-1488,544,-560,-336,8199
210,,-20128,-3488,-2736,-1616,384,-336,-352,8199
211,,-17152,-7728,-2704,-1648,208,-96,-384,8199
212,,-13600,-11664,-2688,-1664,-16,112,-384,8199
213,,-9968,-15136,-2576,-1680,-224,320,-368,8199
214,,-5872,-18432,-2560,-1632,-464,464,-368,8199
215,,-1472,-21024,-2544,-1552,-672,624,-384,8199
216,,2832,-22848,-2512,-1376,-912,720,-416,8199
217,,7264,-24208,-2480,-1216,-1120,816,-384,8199
218,,11376,-24704,-2432,-1024,-1344,816,-384,8199
219,,15008,-24448,-2352,-832,-1536,816,-416,8199
220,,18368,-23664,-2336,-592,-1744,768,-384,8199
221,,20976,-21888,-2304,-288,-1872,672,-400,8199
222,,22784,-19600,-2272,-96,-1952,528,-368,8199
223,,24144,-16784,-2256,144,-2016,368,-384,8199
224,,24640,-13344,-2208,336,-2048,176,-368,8199
225,,24464,-9680,-2176,528,-2064,-16,-400,8199
226,,23680,-5568,-2144,704,-2000,-272,-400,8199
227,,22016,-1168,-2128,832,-1920,-512,-384,8199
228,,19600,3008,-2064,928,-1744,-752,-400,8199
229,,16656,7312,-2048,1056,-1568,-976,-384,8199
230,,13024,11168,-2032,1056,-1408,-1232,-384,8199
231,,9200,14592,-1984,1040,-1184,-1408,-384,8199
232,,5040,17856,-1952,944,-960,-1584,-384,8199
233,,560,20416,-1920,864,-720,-1712,-400,8199
234,,-3616,22224,-1872,736,-464,-1856,-384,8199
235,,-7904,23632,-1872,576,-304,-1920,-400,8199
236,,-12000,24176,-1856,400,-32,-1936,-400,8199
237,,-15552,24016,-1824,144,144,-1936,-400,8199
238,,-18960,23280,-1792,-32,336,-1872,-368,8199
239,,-21680,21504,-1712,-256,480,-1808,-368,8199
240,,-23568,19056,-1712,-544,592,-1632,-352,8199
241,,-24960,16112,-1648,-736,688,-1456,-336,8199
242,,-25392,12576,-1664,-992,704,-1264,-352,8199
243,,-25152,8864,-1600,-1184,672,-1040,-352,8199
244,,-24320,4912,-1616,-1376,608,-864,-368,8199
245,,-22496,624,-1568,-1504,544,-576,-352,8199
246,,-20208,-3376,-1536,-1616,368,-352,-384,8199
247,,-17312,-7600,-1504,-1664,224,-112,-384,8199
248,,-13696,-11664,-1504,-1696,48,96,-400,8199
249,,-9968,-15200,-1504,-1680,-208,272,-416,8199
250,,-5712,-18560,-1488,-1632,-448,480,-400,8199
251,,-1200,-21184,-1440,-1536,-640,640,-368,8199
252,,3072,-22992,-1408,-1408,-896,704,-384,8199
253,,7440,-24256,-1424,-1280,-1136,784,-400,8199
254,,11392,-24608,-1376,-1056,-1344,816,-384,8199
255,,14896,-24336,-1360,-864,-1584,800,-432,8199
256,,18272,-23520,-1328,-592,-1680,752,-384,8199
257,,20928,-21824,-1312,-352,-1792,688,-352,8199
258,,22784,-19648,-1328,-128,-1952,528,-416,8199
259,,24240,-16800,-1280,112,-2032,352,-400,8199
260,,24720,-13312,-1264,336,-2064,192,-368,8199
261,,24496,-9584,-1248,512,-2048,-32,-384,8199
262,,23712,-5392,-1232,656,-1984,-272,-400,8199
263,,21856,-992,-1232,832,-1888,-512,-416,8199
264,,19408,3248,-1184,944,-1744,-736,-368,8199
265,,16416,7392,-1184,1008,-1584,-944,-384,8199
266,,12896,11200,-1184,1024,-1392,-1184,-384,8199
267,,9136,14592,-1120,1008,-1168,-1360,-384,8199
268,,5024,17856,-1152,976,-960,-1536,-352,8199
269,,640,20400,-1104,880,-704,-1680,-352,8199
270,,-3664,22288,-1056,736,-480,-1792,-368,8199
271,,-8032,23680,-1072,608,-256,-1856,-368,8199
272,,-12160,24256,-1040,384,-80,-1904,-352,8199
273,,-15744,24016,-1072,112,112,-1904,-400,8199
274,,-19120,23184,-1008,-32,320,-1824,-352,8199
275,,-21744,21360,-992,-272,464,-1712,-352,8199
276,,-23568,18912,-992,-512,512,-1616,-368,8199
277,,-24896,16000,-976,-768,592,-1456,-384,8199
278,,-25344,12496,-1008,-944,640,-1280,-368,8199
279,,-25040,8848,-960,-1152,592,-1024,-368,8199
280,,-24304,4832,-928,-1328,560,-848,-384,8199
281,,-22512,576,-944,-1456,496,-592,-352,8199
282,,-20208,-3504,-880,-1584,352,-400,-368,8199
283,,-17248,-7744,-864,-1600,192,-144,-352,8199
284,,-13632,-11840,-896,-1648,0,48,-384,8199
285,,-9760,-15296,-848,-1616,-176,256,-384,8199
286,,-5520,-18608,-864,-1584,-416,416,-368,8199
287,,-1072,-21184,-880,-1536,-672,560,-400,8199
288,,3152,-22928,-864,-1360,-880,688,-352,8199
289,,7456,-24192,-832,-1200,-1104,752,-368,8199
290,,11424,-24560,-784,-1008,-1312,784,-400,8199
291,,14912,-24304,-816,-816,-1472,736,-384,8199
292,,18304,-23552,-832,-608,-1600,720,-400,8199
293,,21008,-21824,-800,-384,-1776,624,-384,8199
294,,22880,-19536,-800,-192,-1904,496,-400,8199
295,,24320,-16656,-784,64,-1952,320,-384,8199
296,,24768,-13120,-784,304,-1984,160,-384,8199
297,,24480,-9360,-784,480,-2000,-48,-416,8199
298,,23568,-5248,-752,624,-1920,-240,-384,8199
299,,21728,-896,-784,784,-1840,-464,-400,8199
300,,19264,3216,-752,848,-1712,-736,-416,8199
301,,16352,7408,-736,944,-1552,-944,-384,8199
302,,12816,11232,-752,944,-1376,-1152,-400,8199
303,,9056,14704,-736,960,-1184,-1312,-384,8199
304,,4896,18000,-704,928,-960,-1472,-368,8199
305,,512,20576,-640,832,-720,-1600,-352,8199
306,,-3840,22400,-672,704,-512,-1712,-368,8199
307,,-8208,23744,-624,544,-304,-1824,-336,8199
308,,-12288,24208,-656,384,-80,-1792,-352,8199
309,,-15824,23904,-656,160,48,-1776,-384,8199
310,,-19152,23056,-656,-48,256,-1744,-368,8199
311,,-21744,21264,-592,-272,352,-1680,-336,8199
312,,-23568,18832,-608,-496,480,-1568,-352,8199
313,,-24896,15968,-640,-688,544,-1408,-368,8199
314,,-25312,12544,-608,-944,576,-1248,-368,8199
315,,-25120,8864,-576,-1104,576,-1040,-336,8199
316,,-24288,4768,-576,-1264,528,-832,-368,8199
317,,-22448,400,-608,-1424,432,-624,-384,8199
318,,-20064,-3712,-576,-1504,288,-368,-368,8199
319,,-17104,-7984,-576,-1568,144,-192,-384,8199
320,,-13440,-11904,-560,-1552,0,16,-336,8199
321,,-9648,-15360,-528,-1584,-224,240,-368,8199
322,,-5392,-18608,-560,-1536,-400,368,-368,8199
323,,-992,-21152,-544,-1440,-624,544,-368,8199
324,,3232,-22928,-512,-1280,-832,608,-384,8199
325,,7520,-24224,-544,-1184,-1088,672,-368,8199
326,,11536,-24656,-560,-1008,-1248,704,-368,8199
327,,15072,-24352,-544,-800,-1456,672,-384,8199
328,,18480,-23536,-560,-624,-1616,640,-368,8199
329,,21072,-21776,-576,-416,-1760,480,-384,8199
330,,22896,-19424,-512,-176,-1872,416,-416,8199
331,,24240,-16528,-528,32,-1904,288,-384,8199
332,,24656,-12928,-512,256,-1920,128,-400,8199
333,,24352,-9248,-512,448,-1904,-32,-400,8199
334,,23488,-5168,-496,544,-1856,-288,-400,8199
335,,21680,-848,-480,704,-1744,-480,-368,8199
336,,19232,3264,-496,784,-1648,-672,-368,8199
337,,16304,7488,-512,848,-1536,-864,-368,8199
338,,12736,11376,-512,832,-1376,-1120,-432,8199
339,,8944,14864,-496,880,-1168,-1264,-352,8199
340,,4768,18112,-496,800,-976,-1424,-352,8199
341,,288,20592,-464,720,-752,-1600,-368,8199
342,,-4016,22432,-448,624,-560,-1600,-368,8199
343,,-8272,23696,-464,464,-368,-1712,-416,8199
344,,-12368,24160,-432,336,-160,-1744,-368,8199
345,,-15856,23840,-448,144,16,-1696,-352,8199
346,,-19120,22992,-400,-48,192,-1680,-384,8199
347,,-21792,21184,-448,-288,288,-1632,-368,8199
348,,-23584,18848,-400,-464,416,-1488,-368,8199
349,,-24960,15952,-416,-656,464,-1344,-368,8199
350,,-25392,12416,-448,-864,464,-1200,-400,8199
351,,-25104,8688,-416,-1040,448,-1008,-384,8199
352,,-24272,4592,-400,-1168,432,-816,-352,8199
353,,-22352,256,-368,-1296,336,-592,-352,8199
354,,-19952,-3872,-384,-1392,240,-400,-352,8199
355,,-17008,-8032,-384,-1472,96,-224,-384,8199
356,,-13376,-11968,-400,-1488,-32,-16,-352,8199
357,,-9552,-15408,-368,-1504,-240,128,-384,8199
358,,-5360,-18592,-384,-1440,-432,272,-384,8199
359,,-896,-21120,-352,-1360,-608,432,-368,8199
360,,3280,-22976,-432,-1248,-864,496,-416,8199
361,,7664,-24272,-400,-1136,-1056,576,-400,8199
362,,11664,-24720,-400,-960,-1200,560,-400,8199
363,,15184,-24400,-416,-800,-1376,608,-384,8199
364,,18592,-23520,-384,-592,-1536,592,-368,8199
365,,21136,-21664,-400,-368,-1664,480,-416,8199
366,,22944,-19280,-416,-192,-1712,400,-368,8199
367,,24240,-16384,-384,16,-1792,224,-384,8199
368,,24688,-12896,-400,176,-1824,48,-416,8199
369,,24336,-9200,-400,336,-1808,-112,-400,8199
370,,23504,-5056,-400,512,-1776,-304,-368,8199
371,,21648,-752,-416,640,-1664,-464,-384,8199
372,,19248,3344,-384,704,-1616,-688,-384,8199
373,,16192,7632,-400,768,-1472,-896,-416,8199
374,,12592,11584,-384,816,-1312,-1024,-368,8199
375,,8736,14960,-384,768,-1136,-1200,-384,8199
376,,4528,18288,-352,768,-944,-1344,-352,8199
377,,128,20720,-368,688,-752,-1504,-400,8199
378,,-4160,22448,-336,528,-560,-1616,-368,8199
379,,-8464,23728,-352,432,-368,-1664,-400,8199
380,,-12496,24096,-368,256,-208,-1696,-416,8199
381,,-15984,23808,-336,112,-32,-1664,-384,8199
382,,-19296,22944,-320,-64,112,-1584,-352,8199
383,,-21888,21120,-320,-256,256,-1568,-368,8199
384,,-23744,18768,-320,-448,304,-1440,-352,8199
385,,-25072,15808,-336,-656,384,-1312,-384,8199
386,,-25440,12256,-304,-832,416,-1152,-384,8199
387,,-25056,8528,-272,-960,432,-1008,-352,8199
388,,-24208,4384,-320,-1152,368,-784,-368,8199
389,,-22240,64,-320,-1248,288,-608,-336,8199
390,,-19872,-4016,-288,-1344,192,-448,-384,8199
391,,-16832,-8272,-320,-1424,64,-256,-384,8199
392,,-13216,-12112,-288,-1424,-80,-64,-400,8199
393,,-9392,-15520,-288,-1408,-224,112,-352,8199
394,,-5152,-18752,-288,-1360,-448,272,-368,8199
395,,-736,-21296,-336,-1296,-640,368,-384,8199
396,,3520,-23040,-336,-1200,-816,448,-400,8199
397,,7904,-24352,-320,-1072,-1024,512,-400,8199
398,,11856,-24720,-336,-912,-1168,512,-384,8199
399,,15344,-24336,-320,-784,-1328,512,-384,8199
400,,18720,-23440,-320,-560,-1456,496,-352,8199
401,,21216,-21600,-320,-368,-1584,416,-400,8199
402,,22976,-19184,-320,-208,-1648,304,-352,8199
403,,24272,-16240,-320,-32,-1744,176,-384,8199
