,2215 循环水系统3#水泵电机,2000
8,7A,1D
1,UAB,,,V,0.0056274620146314,0,0,-2048,2047,1,1,S
2,UBC,,,V,0.00560852495793606,0,0,-2048,2047,1,1,S
3,3U0,,,V,0.00562113546936481,0,0,-2048,2047,1,1,S
4,IA,,,A,0.00423549343498518,0,0,-2048,2047,1,1,S
5,IB,,,A,0.00429184549356223,0,0,-2048,2047,1,1,S
6,IC,,,A,0.00427899015832264,0,0,-2048,2047,1,1,S
7,3I0,,,A,0.00106951871657754,0,0,-2048,2047,1,1,S
1,DI,,,1
0
1
1800,3744
13/12/2012,09:34:48.377001
13/12/2012,09:34:48.457001
ASCII
1
1,,-26528,17984,7136,-960,-992,-1248,-1296,8205
2,,-27744,14672,2512,-1008,-944,-1184,-1280,8205
3,,-27392,10464,-2144,-1088,-928,-1120,-1280,8205
4,,-26800,6144,-6832,-1152,-944,-1088,-1296,8205
5,,-25264,1584,-11376,-1232,-944,-1024,-1312,8205
6,,-22848,-3088,-15424,-1248,-992,-944,-1312,8205
7,,-19760,-7712,-19040,-1264,-992,-864,-1248,8205
8,,-16448,-11984,-22256,-1296,-1056,-832,-1312,8205
9,,-12352,-16176,-24640,-1312,-1104,-752,-1312,8205
10,,-7936,-19696,-26272,-1328,-1152,-656,-1248,8205
11,,-3408,-22816,-27152,-1312,-1232,-624,-1280,8205
12,,1280,-24976,-27232,-1312,-1296,-576,-1264,8205
13,,5824,-26576,-26944,-1248,-1376,-528,-1280,8205
14,,10048,-27360,-26304,-1200,-1440,-512,-1280,8205
15,,14336,-27552,-24752,-1136,-1504,-496,-1264,8205
16,,17856,-26768,-21632,-1072,-1568,-480,-1232,8205
17,,20912,-25136,-17712,-1024,-1616,-512,-1296,8205
18,,23088,-22672,-13584,-928,-1664,-512,-1264,8205
19,,24592,-19696,-9152,-864,-1712,-544,-1264,8205
20,,25520,-16240,-4512,-800,-1712,-592,-1280,8205
21,,25408,-12144,96,-752,-1776,-656,-1280,8205
22,,24752,-7808,4832,-704,-1744,-704,-1280,8205
23,,23056,-3152,9520,-608,-1728,-768,-1296,8205
24,,20736,1504,13520,-576,-1712,-864,-1248,8205
25,,17728,6112,17152,-512,-1648,-928,-1248,8205
26,,14384,10272,20336,-512,-1632,-976,-1280,8205
27,,10256,14448,22656,-512,-1568,-1072,-1296,8205
28,,5936,18048,24320,-496,-1520,-1104,-1264,8205
29,,1248,21072,25216,-528,-1440,-1184,-1280,8205
30,,-3312,23184,25056,-560,-1392,-1232,-1280,8205
31,,-8064,25040,24688,-592,-1344,-1264,-1264,8205
32,,-12208,25728,24112,-624,-1248,-1296,-1296,8205
33,,-16272,25776,22608,-704,-1184,-1296,-1264,8205
34,,-20048,25040,19264,-736,-1104,-1312,-1296,8205
35,,-22816,23376,15440,-816,-1072,-1296,-1280,8205
36,,-25200,21008,11424,-880,-992,-1264,-1280,8205
37,,-26608,18032,7072,-912,-992,-1248,-1264,8205
38,,-27552,14448,2304,-1008,-976,-1184,-1280,8205
39,,-27488,10432,-2352,-1104,-928,-1120,-1280,8205
40,,-26688,6032,-7104,-1136,-944,-1072,-1280,8205
41,,-25216,1440,-11712,-1200,-960,-1024,-1296,8205
42,,-22688,-3280,-15760,-1264,-960,-928,-1296,8205
43,,-19776,-7792,-19328,-1296,-1008,-864,-1296,8205
44,,-16320,-12048,-22512,-1296,-1024,-784,-1264,8205
45,,-12272,-16176,-24816,-1328,-1088,-736,-1280,8205
46,,-7856,-19744,-26512,-1296,-1152,-640,-1296,8205
47,,-3264,-22896,-27264,-1328,-1232,-624,-1280,8205
48,,1440,-25040,-27152,-1296,-1312,-560,-1296,8205
49,,5968,-26608,-26864,-1264,-1392,-560,-1280,8205
50,,10272,-27504,-26224,-1216,-1440,-496,-1296,8205
51,,14336,-27552,-24752,-1168,-1520,-496,-1280,8205
52,,17824,-26640,-21408,-1104,-1600,-496,-1248,8205
53,,21024,-25152,-17744,-1056,-1648,-512,-1296,8205
54,,23024,-22608,-13760,-960,-1680,-544,-1296,8205
55,,24624,-19680,-9312,-880,-1712,-576,-1248,8205
56,,25584,-16160,-4528,-784,-1712,-608,-1280,8205
57,,25344,-12064,96,-736,-1760,-672,-1264,8205
58,,24640,-7648,5088,-704,-1760,-720,-1280,8205
59,,23200,-3136,9536,-624,-1744,-768,-1280,8205
60,,20608,1616,13600,-560,-1712,-832,-1280,8205
61,,17744,6080,17232,-528,-1680,-912,-1280,8205
62,,14352,10496,20352,-480,-1648,-992,-1248,8205
63,,10144,14512,22656,-512,-1600,-1072,-1280,8205
64,,5760,18144,24400,-512,-1520,-1120,-1296,8205
65,,1184,21152,25248,-512,-1440,-1168,-1280,8205
66,,-3424,23312,25120,-544,-1392,-1232,-1280,8205
67,,-7936,24800,24736,-576,-1296,-1280,-1264,8205
68,,-12384,25888,24096,-608,-1232,-1280,-1264,8205
69,,-16448,25808,22560,-672,-1136,-1264,-1296,8205
70,,-19888,24912,19344,-752,-1120,-1296,-1296,8205
71,,-23040,23360,15520,-800,-1040,-1264,-1280,8205
72,,-25120,20912,11536,-880,-1008,-1264,-1296,8205
73,,-26688,17904,7200,-928,-976,-1216,-1264,8205
74,,-27504,14400,2288,-1024,-960,-1184,-1296,8205
75,,-27504,10336,-2656,-1088,-928,-1136,-1296,8205
76,,-26720,5984,-7216,-1184,-928,-1072,-1264,8205
77,,-25072,1312,-11760,-1184,-896,-992,-1264,8205
78,,-22688,-3232,-15856,-1232,-960,-928,-1296,8205
79,,-19712,-7872,-19456,-1296,-976,-832,-1264,8205
80,,-16272,-12128,-22544,-1312,-1040,-784,-1264,8205
81,,-12160,-16224,-24864,-1344,-1104,-688,-1264,8205
82,,-7776,-19840,-26544,-1328,-1168,-672,-1264,8205
83,,-3120,-22928,-27280,-1296,-1216,-592,-1232,8205
84,,1456,-25008,-27200,-1264,-1312,-528,-1248,8205
85,,6096,-26672,-26864,-1216,-1344,-512,-1248,8205
86,,10368,-27440,-26256,-1216,-1440,-496,-1280,8205
87,,14352,-27472,-24704,-1136,-1504,-496,-1264,8205
88,,17984,-26544,-21088,-1088,-1568,-480,-1232,8205
89,,20912,-25008,-17456,-1024,-1632,-480,-1264,8205
90,,23216,-22624,-13408,-944,-1664,-512,-1248,8205
91,,24640,-19568,-9056,-896,-1712,-544,-1280,8205
92,,25552,-16016,-4368,-768,-1712,-560,-1248,8205
93,,25456,-11952,336,-736,-1744,-656,-1264,8205
94,,24576,-7568,5024,-672,-1728,-720,-1248,8205
95,,23184,-3008,9472,-624,-1728,-768,-1280,8205
96,,20528,1632,13552,-576,-1696,-848,-1248,8205
97,,17712,6192,17232,-544,-1680,-912,-1264,8205
98,,14192,10528,20336,-528,-1648,-976,-1248,8205
99,,10048,14592,22688,-512,-1568,-1088,-1312,8205
100,,5664,18192,24336,-528,-1536,-1152,-1280,8205
101,,1168,21104,25072,-528,-1424,-1152,-1264,8205
102,,-3520,23424,25168,-560,-1376,-1216,-1264,8205
103,,-8016,24864,24800,-576,-1312,-1264,-1264,8205
104,,-12432,25840,24112,-608,-1232,-1280,-1264,8205
105,,-16448,25760,22032,-672,-1152,-1280,-1264,8205
106,,-19984,24896,18704,-736,-1104,-1280,-1264,8205
107,,-23152,23344,15152,-800,-1072,-1312,-1296,8205
108,,-24992,20800,11056,-880,-992,-1264,-1296,8205
109,,-26816,17936,6704,-960,-960,-1232,-1264,8205
110,,-27520,14336,2000,-1008,-928,-1184,-1280,8205
111,,-27424,10288,-2608,-1088,-928,-1136,-1280,8205
112,,-26640,5856,-7280,-1136,-944,-1088,-1312,8205
113,,-25152,1280,-11808,-1200,-928,-1008,-1280,8205
114,,-22544,-3440,-15840,-1280,-976,-928,-1264,8205
115,,-15744,-7584,-17344,-1216,-976,-880,-1168,8205
116,,-9552,-7072,1456,-1040,-1072,-1056,-1280,8205
117,,-5824,-10032,-1904,-864,-1088,-1152,-1280,8205
118,,-496,-14080,-5904,-624,-1152,-1360,-1248,8205
119,,2400,-16784,-7344,-352,-1264,-1552,-1264,8205
120,,5808,-19600,-9072,-80,-1344,-1712,-1280,8205
121,,8688,-22048,-10512,96,-1440,-1824,-1296,8205
122,,11472,-25008,-12384,224,-1520,-1856,-1280,8205
123,,13632,-26000,-13312,288,-1600,-1824,-1264,8205
124,,16000,-26688,-14064,320,-1696,-1744,-1280,8205
125,,17408,-26560,-14304,256,-1728,-1648,-1248,8205
126,,20512,-25072,-15088,224,-1792,-1552,-1264,8205
127,,20816,-22720,-14496,160,-1840,-1456,-1280,8205
128,,20928,-20464,-13904,64,-1872,-1312,-1264,8205
129,,20096,-17584,-12928,-128,-1856,-1184,-1280,8205
130,,18224,-13952,-11600,-288,-1840,-1008,-1280,8205
131,,15840,-10064,-9664,-512,-1760,-848,-1264,8205
132,,13536,-3360,-816,-688,-1728,-720,-1296,8205
133,,10304,-1232,-5104,-880,-1664,-624,-1264,8205
134,,8048,2896,-2784,-1056,-1632,-464,-1280,8205
135,,4640,7872,208,-1248,-1568,-304,-1296,8205
136,,1680,11296,2208,-1488,-1488,-176,-1296,8205
137,,-1872,14784,4240,-1664,-1392,-64,-1264,8205
138,,-5312,17584,5952,-1824,-1328,32,-1264,8205
139,,-10144,20400,7904,-2016,-1232,128,-1248,8205
140,,-13280,22208,9888,-2160,-1120,160,-1264,8205
141,,-15808,23264,10608,-2256,-1040,160,-1296,8205
142,,-18080,24000,11376,-2336,-928,160,-1280,8205
143,,-19648,24032,12016,-2352,-880,32,-1280,8205
144,,-20384,23088,12016,-2288,-800,-48,-1264,8205
145,,-20848,21488,11792,-2192,-752,-192,-1296,8205
146,,-21232,19488,11504,-2032,-752,-368,-1264,8205
147,,-20832,16720,11104,-1824,-752,-528,-1296,8205
148,,-20016,12304,10048,-1696,-784,-704,-1296,8205
149,,-18592,8496,7424,-1520,-848,-832,-1296,8205
150,,-18288,4528,6064,-1328,-896,-944,-1328,8205
151,,-7008,-368,-8800,-1248,-976,-928,-1216,8205
152,,-10496,-3648,544,-1088,-1024,-1088,-1296,8205
153,,-6800,-7792,-1776,-928,-1072,-1136,-1248,8205
154,,-2624,-12080,-4528,-720,-1152,-1280,-1280,8205
155,,1072,-15664,-6528,-496,-1248,-1424,-1280,8205
156,,4592,-18816,-8496,-224,-1344,-1552,-1296,8205
157,,7728,-21344,-10080,-64,-1488,-1632,-1280,8205
158,,10448,-23216,-11088,144,-1552,-1680,-1264,8205
159,,12848,-24592,-11952,240,-1696,-1680,-1296,8205
160,,14992,-25152,-13136,304,-1776,-1632,-1296,8205
161,,16640,-24928,-13456,336,-1872,-1600,-1280,8205
162,,18096,-24128,-14016,288,-1936,-1488,-1248,8205
163,,19104,-22480,-13856,208,-1984,-1472,-1264,8205
164,,19616,-20544,-13360,144,-1984,-1328,-1296,8205
165,,19248,-17760,-12416,80,-1984,-1200,-1264,8205
166,,18320,-14544,-11248,-112,-1952,-1056,-1264,8205
167,,16480,-10768,-9984,-256,-1920,-928,-1264,8205
168,,17008,-6080,-7248,-448,-1888,-832,-1248,8205
169,,16928,1856,14752,-448,-1808,-896,-1248,8205
170,,12848,7568,12448,-464,-1744,-928,-1296,8205
171,,1408,9984,5424,-640,-1616,-976,-1328,8205
172,,1360,10576,2192,-800,-1488,-832,-1232,8205
173,,-1312,14912,3552,-880,-1456,-800,-1280,8205
174,,-8064,14992,5776,-1136,-1360,-736,-1296,8205
175,,-10256,17696,7488,-1408,-1184,-576,-1296,8205
176,,-13008,19088,8656,-1648,-1072,-448,-1280,8205
177,,-15792,21344,9728,-1824,-944,-368,-1280,8205
178,,-17664,23840,11424,-1968,-816,-384,-1296,8205
179,,-18944,23552,11568,-1984,-720,-416,-1280,8205
180,,-20000,23664,11632,-2000,-640,-480,-1280,8205
181,,-20928,21168,11504,-1952,-608,-640,-1312,8205
182,,-21648,17152,10736,-1888,-576,-720,-1296,8205
183,,-21232,14384,9520,-1840,-576,-736,-1328,8205
184,,-20528,11440,8880,-1760,-624,-784,-1264,8205
185,,-18960,8176,7584,-1616,-688,-896,-1312,8205
186,,-19200,-1472,-11232,-1600,-736,-864,-1312,8205
187,,-18048,-3184,-13616,-1584,-832,-768,-1296,8205
188,,-15008,-6304,-13360,-1488,-912,-784,-1296,8205
189,,-6576,-14160,-15760,-1408,-992,-736,-1200,8205
190,,-2416,-13552,-2928,-1184,-1136,-800,-1280,8205
191,,-2208,-16288,-5408,-1040,-1200,-896,-1296,8205
192,,5968,-17648,-8368,-896,-1328,-896,-1264,8205
193,,9200,-19856,-10208,-592,-1552,-1024,-1248,8205
194,,11440,-21216,-11024,-304,-1696,-1152,-1248,8205
195,,13792,-21632,-11696,-96,-1824,-1264,-1280,8205
196,,14624,-24672,-12784,64,-1920,-1248,-1264,8205
197,,15936,-24304,-13040,112,-2016,-1216,-1264,8205
198,,17232,-24048,-13216,128,-2064,-1152,-1248,8205
199,,17808,-24000,-13248,64,-2160,-1056,-1280,8205
200,,20592,-19024,-13216,16,-2176,-1024,-1312,8205
201,,19760,-16720,-12624,16,-2176,-1008,-1312,8205
202,,18992,-13584,-11040,-96,-2160,-944,-1280,8205
203,,17232,-10032,-9760,-176,-2144,-880,-1280,8205
204,,13440,-5936,-6688,-320,-2016,-816,-1280,8205
205,,10528,-2336,-4464,-560,-1888,-752,-1264,8205
206,,7856,1168,-2768,-736,-1712,-640,-1280,8205
207,,5120,4336,-1072,-928,-1648,-560,-1312,8205
208,,1680,10256,1600,-1120,-1552,-480,-1264,8205
209,,-1152,13536,3680,-1296,-1408,-416,-1264,8205
210,,-4208,16592,5360,-1504,-1296,-368,-1296,8205
211,,-7952,19312,7008,-1680,-1120,-352,-1296,8205
212,,-11168,20976,8640,-1872,-960,-320,-1312,8205
213,,-15040,22176,10000,-2064,-816,-304,-1296,8205
214,,-16688,22336,10544,-2224,-656,-288,-1312,8205
215,,-18336,22224,10768,-2320,-544,-288,-1280,8205
216,,-19056,21440,10832,-2368,-464,-336,-1264,8205
217,,-19760,20624,10896,-2400,-400,-368,-1264,8205
218,,-19872,18944,10480,-2336,-416,-448,-1296,8205
219,,-19856,16704,9712,-2224,-416,-560,-1296,8205
220,,-19664,14496,8944,-2096,-416,-688,-1296,8205
221,,-18032,9440,7232,-1904,-448,-752,-1264,8205
222,,-16208,4928,5312,-1776,-592,-832,-1296,8205
223,,-14112,784,3424,-1568,-688,-912,-1296,8205
224,,-10896,-3168,848,-1392,-864,-944,-1280,8205
225,,-7840,-6672,-1216,-1168,-976,-1008,-1280,8205
226,,-3584,-10352,-3376,-1008,-1120,-1024,-1296,8205
227,,272,-14048,-5696,-832,-1232,-1104,-1312,8205
228,,3200,-16752,-7376,-576,-1408,-1184,-1280,8205
229,,6144,-19376,-8864,-336,-1568,-1248,-1264,8205
230,,9104,-21904,-10512,-128,-1760,-1312,-1280,8205
231,,11584,-23472,-11744,64,-1904,-1280,-1264,8205
232,,13936,-24416,-12560,208,-2032,-1312,-1264,8205
233,,15632,-24336,-12944,320,-2192,-1264,-1264,8205
234,,16656,-23536,-13248,384,-2288,-1248,-1280,8205
235,,18208,-21728,-12960,448,-2368,-1232,-1280,8205
236,,18240,-19744,-12528,432,-2400,-1168,-1264,8205
237,,18016,-17328,-11696,400,-2368,-1136,-1264,8205
238,,17312,-14496,-10688,288,-2384,-1104,-1280,8205
239,,16048,-11392,-9744,160,-2272,-1024,-1264,8205
240,,13904,-7552,-8288,-16,-2176,-928,-1280,8205
241,,11984,-3680,-6512,-208,-2064,-864,-1216,8205
242,,9024,48,-3376,-384,-1936,-816,-1312,8205
243,,5536,4720,-1280,-608,-1776,-768,-1280,8205
244,,2016,8896,1136,-816,-1584,-752,-1264,8205
245,,-1584,12688,3232,-912,-1472,-720,-1264,8205
246,,-4704,15504,5104,-1136,-1344,-704,-1312,8205
247,,-7504,17856,6512,-1408,-1120,-656,-1264,8205
248,,-10992,19840,8160,-1616,-944,-608,-1264,8205
249,,-13344,20832,9232,-1856,-768,-592,-1312,8205
250,,-15616,21504,10000,-1984,-592,-576,-1296,8205
251,,-17408,21728,10624,-2144,-480,-592,-1296,8205
252,,-18688,21216,10864,-2224,-336,-560,-1280,8205
253,,-19600,20320,10848,-2272,-256,-608,-1280,8205
254,,-19856,18704,10496,-2288,-224,-640,-1264,8205
255,,-19792,16624,9968,-2256,-224,-720,-1280,8205
256,,-19008,13664,8864,-2160,-224,-800,-1296,8205
257,,-17760,9648,7504,-2016,-304,-800,-1296,8205
258,,-15968,5600,6144,-1888,-416,-864,-1264,8205
259,,-14304,1744,4832,-1744,-560,-896,-1280,8205
260,,-11360,-2400,1264,-1584,-704,-928,-1296,8205
261,,-8272,-5888,-672,-1344,-864,-928,-1264,8205
262,,-4448,-9696,-2864,-1120,-1024,-992,-1280,8205
263,,-864,-13072,-4912,-944,-1168,-992,-1232,8205
264,,2784,-16336,-7008,-784,-1328,-1072,-1264,8205
265,,5936,-19040,-8496,-512,-1504,-1088,-1296,8205
266,,8768,-21168,-10128,-240,-1728,-1136,-1280,8205
267,,11312,-22832,-11216,-64,-1936,-1136,-1280,8205
268,,13136,-23504,-11728,128,-2160,-1136,-1280,8205
269,,14928,-23792,-12496,272,-2272,-1120,-1248,8205
270,,16128,-23040,-12704,384,-2368,-1088,-1232,8205
271,,17136,-21760,-12624,432,-2480,-1072,-1264,8205
272,,17648,-19840,-12352,464,-2544,-1072,-1280,8205
273,,17920,-17680,-11792,464,-2528,-1024,-1232,8205
274,,17392,-14912,-11008,400,-2544,-1008,-1264,8205
275,,16176,-11616,-9856,336,-2448,-976,-1248,8205
276,,14176,-7952,-9296,208,-2368,-928,-1264,8205
277,,11872,-3952,-6624,48,-2208,-896,-1248,8205
278,,8944,-80,-4000,-208,-2048,-880,-1264,8205
279,,5712,3920,-1552,-416,-1888,-816,-1264,8205
280,,2336,7888,640,-656,-1680,-784,-1264,8205
281,,-880,11456,2672,-832,-1488,-800,-1248,8205
282,,-4208,14736,4560,-960,-1424,-800,-1264,8205
283,,-7216,17248,5936,-1184,-1184,-784,-1296,8205
284,,-10128,19232,7600,-1440,-928,-752,-1280,8205
285,,-12832,20640,8912,-1680,-736,-752,-1280,8205
286,,-15136,21360,9456,-1856,-528,-720,-1264,8205
287,,-16928,21312,10144,-2016,-384,-752,-1296,8205
288,,-18368,20880,10320,-2192,-288,-752,-1296,8205
289,,-19200,19872,10304,-2272,-160,-736,-1280,8205
290,,-19328,18224,10096,-2320,-96,-768,-1296,8205
291,,-19344,16256,9584,-2304,-80,-784,-1248,8205
292,,-18816,13584,8896,-2240,-64,-832,-1264,8205
293,,-17776,10400,7600,-2160,-160,-880,-1328,8205
294,,-16048,6528,6480,-2016,-272,-880,-1264,8205
295,,-14624,2928,5056,-1856,-384,-880,-1264,8205
296,,-11648,-1504,1984,-1680,-560,-896,-1264,8205
297,,-8304,-5552,-624,-1504,-752,-912,-1296,8205
298,,-4960,-9152,-2576,-1264,-944,-944,-1280,8205
299,,-1344,-12768,-4528,-1056,-1152,-960,-1264,8205
300,,2160,-15792,-6624,-912,-1248,-944,-1264,8205
301,,5392,-18416,-8224,-672,-1424,-976,-1264,8205
302,,8128,-20368,-9776,-448,-1680,-976,-1280,8205
303,,10656,-21936,-10768,-224,-1952,-1008,-1296,8205
304,,12816,-22832,-11552,0,-2128,-1008,-1248,8205
305,,14512,-23104,-11952,176,-2320,-1008,-1280,8205
306,,15712,-22496,-12384,304,-2448,-976,-1264,8205
307,,16720,-21616,-12240,416,-2528,-960,-1248,8205
308,,17152,-19952,-12080,464,-2608,-992,-1280,8205
309,,17104,-17648,-11616,448,-2640,-960,-1264,8205
310,,16784,-15024,-10816,416,-2624,-928,-1264,8205
311,,15808,-11840,-9872,352,-2560,-928,-1280,8205
312,,14080,-8192,-8464,240,-2448,-896,-1264,8205
313,,12160,-4272,-7968,96,-2336,-880,-1264,8205
314,,9712,-752,-4432,-64,-2160,-880,-1280,8205
315,,6352,3280,-1904,-304,-1984,-848,-1264,8205
316,,2944,6944,176,-528,-1760,-848,-1248,8205
317,,-592,10656,2192,-736,-1568,-816,-1280,8205
318,,-4000,13840,4304,-880,-1472,-832,-1264,8205
319,,-7024,16496,5760,-1088,-1264,-848,-1264,8205
320,,-9728,18576,7264,-1296,-976,-816,-1264,8205
321,,-12208,20000,8192,-1536,-768,-848,-1280,8205
322,,-14368,20848,9136,-1760,-560,-864,-1280,8205
323,,-16144,21072,9680,-1952,-400,-832,-1280,8205
324,,-17488,20512,9824,-2048,-224,-848,-1264,8205
325,,-18672,19568,9904,-2176,-144,-896,-1296,8205
326,,-19104,17968,9776,-2256,-16,-848,-1264,8205
327,,-19104,15968,9504,-2272,-32,-880,-1312,8205
328,,-18784,13520,8800,-2224,-32,-880,-1280,8205
329,,-17648,10336,8256,-2176,-96,-896,-1280,8205
330,,-15984,6864,5904,-2080,-208,-928,-1296,8205
331,,-14016,2864,5520,-1936,-304,-928,-1264,8205
332,,-11344,-1008,1952,-1760,-512,-928,-1312,8205
333,,-8544,-4784,-336,-1568,-688,-944,-1296,8205
334,,-5344,-8432,-2224,-1328,-864,-944,-1312,8205
335,,-1888,-12128,-4176,-1088,-1072,-928,-1248,8205
336,,1504,-15328,-6320,-976,-1216,-960,-1264,8205
337,,4752,-17952,-7552,-816,-1376,-944,-1280,8205
338,,7520,-19904,-9312,-560,-1632,-928,-1264,8205
339,,10288,-21424,-10288,-320,-1840,-928,-1248,8205
340,,12400,-22256,-11168,-80,-2048,-912,-1264,8205
341,,14176,-22528,-11520,80,-2288,-912,-1264,8205
342,,15248,-21984,-11728,224,-2416,-928,-1264,8205
343,,16256,-21200,-11872,336,-2528,-896,-1264,8205
344,,16608,-19664,-11712,416,-2608,-912,-1248,8205
345,,16672,-17760,-11584,400,-2672,-912,-1296,8205
346,,16496,-15328,-10896,416,-2640,-848,-1280,8205
347,,15632,-12192,-9840,352,-2608,-832,-1248,8205
348,,13952,-8400,-8688,224,-2512,-832,-1280,8205
349,,12608,-4624,-7424,128,-2384,-832,-1248,8205
350,,9696,-768,-4144,-32,-2208,-832,-1248,8205
351,,6576,2976,-2048,-240,-2032,-832,-1280,8205
352,,3216,6576,-112,-432,-1824,-848,-1248,8205
353,,-144,9968,1952,-656,-1600,-832,-1264,8205
354,,-3536,13216,4064,-816,-1440,-848,-1264,8205
355,,-6464,15696,5584,-992,-1312,-848,-1296,8205
356,,-9344,17872,7008,-1232,-1088,-864,-1296,8205
357,,-11760,19424,7856,-1456,-832,-880,-1312,8205
358,,-13968,20464,8976,-1648,-624,-848,-1296,8205
359,,-15680,20704,9296,-1808,-432,-864,-1248,8205
360,,-17120,20368,9488,-1968,-288,-848,-1264,8205
361,,-18096,19408,9632,-2096,-176,-880,-1296,8205
362,,-18576,17856,9552,-2160,-64,-896,-1280,8205
363,,-18656,15808,9120,-2224,-64,-928,-1296,8205
364,,-18400,13408,8640,-2192,-48,-912,-1312,8205
365,,-17584,10480,7568,-2128,-80,-960,-1296,8205
366,,-15952,7008,6496,-2064,-176,-944,-1280,8205
367,,-14288,3120,6320,-1920,-272,-944,-1248,8205
368,,-11616,-512,1936,-1792,-448,-976,-1312,8205
369,,-8896,-4048,-16,-1584,-624,-976,-1296,8205
370,,-5600,-7760,-1792,-1392,-816,-976,-1264,8205
371,,-2176,-11392,-3728,-1168,-1024,-944,-1248,8205
372,,1360,-14848,-6048,-1024,-1200,-960,-1296,8205
373,,4528,-17584,-7856,-864,-1344,-976,-1296,8205
374,,6960,-19376,-9008,-672,-1584,-960,-1312,8205
375,,9584,-20928,-10320,-400,-1792,-912,-1264,8205
376,,11664,-21744,-10944,-192,-2000,-944,-1264,8205
377,,13392,-22016,-11328,-16,-2192,-912,-1248,8205
378,,14752,-21584,-11616,128,-2336,-896,-1248,8205
379,,15840,-20880,-11712,224,-2464,-912,-1280,8205
380,,16464,-19552,-11568,288,-2544,-848,-1264,8205
