,1#自闭保护单元,2000
10,9A,1D
1,UAB,,,V,0.00568504832291074,0,0,-2048,2047,1,1,S
2,UBC,,,V,0.00580046403712297,0,0,-2048,2047,1,1,S
3,3U0,,,V,0.00568504832291074,0,0,-2048,2047,1,1,S
4,UABX,,,V,0.00575373993095512,0,0,-2048,2047,1,1,S
5,UBCX,,,V,0.00574712643678161,0,0,-2048,2047,1,1,S
6,IA,,,A,0.00429184549356223,0,0,-2048,2047,1,1,S
7,IB,,,A,0.00431965442764579,0,0,-2048,2047,1,1,S
8,IC,,,A,0.00431965442764579,0,0,-2048,2047,1,1,S
9,3I0,,,A,0.001085776330076,0,0,-2048,2047,1,1,S
1,DI,,,1
0
1
1800,3744
09/01/2008,11:57:20.867000
09/01/2008,11:57:20.947000
ASCII
1
1,,-27536,13328,-720,-27136,13248,-816,288,-736,-240,8243
2,,-27136,9504,-656,-26720,9328,-720,320,-848,-224,8243
3,,-25680,5216,-608,-25264,5024,-560,272,-976,-240,8243
4,,-23280,320,-512,-22928,64,-576,368,-1024,-192,8243
5,,-20944,-4400,-496,-20560,-4640,-496,240,-928,-208,8243
6,,-18000,-8912,-496,-17616,-9216,-400,192,-1040,-224,8243
7,,-14400,-13168,-464,-13984,-13488,-304,80,-1024,-240,8243
8,,-10192,-16816,-432,-9856,-17136,-112,-16,-1024,-224,8243
9,,-5536,-19760,-432,-5232,-20144,-32,-192,-960,-208,8243
10,,-624,-22336,-384,-416,-22704,-16,-208,-1024,-192,8243
11,,4192,-24576,-416,4336,-25040,-48,-272,-928,-208,8243
12,,8704,-26144,-448,8752,-26560,16,-352,-896,-240,8243
13,,12928,-26864,-448,12928,-27344,-16,-496,-784,-208,8243
14,,16560,-26464,-496,16496,-26928,16,-608,-640,-256,8243
15,,19440,-24816,-528,19312,-25280,-32,-656,-480,-208,8243
16,,22096,-22624,-544,21952,-23008,64,-736,-528,-192,8243
17,,24672,-20160,-576,24464,-20544,-48,-720,-432,-192,8243
18,,26224,-17088,-640,26016,-17408,-128,-768,-304,-208,8243
19,,26912,-13648,-704,26656,-13904,-224,-736,-272,-208,8243
20,,26544,-9840,-768,26288,-10032,-400,-720,-112,-224,8243
21,,25008,-5504,-848,24816,-5632,-480,-688,-16,-192,8243
22,,22704,-640,-912,22496,-768,-512,-752,64,-192,8243
23,,20288,4112,-928,20048,4000,-576,-640,-48,-208,8243
24,,17376,8528,-944,17104,8464,-672,-592,96,-208,8243
25,,13728,12896,-976,13472,12848,-784,-480,48,-208,8243
26,,9552,16496,-992,9360,16528,-944,-336,64,-224,8243
27,,4896,19504,-992,4752,19520,-1024,-240,32,-208,8243
28,,0,22000,-1008,-64,22080,-1056,-208,64,-192,8243
29,,-4832,24272,-1008,-4848,24368,-1024,-160,-48,-224,8243
30,,-9360,25840,-1008,-9232,25968,-1072,-32,-64,-192,8243
31,,-13616,26576,-992,-13424,26688,-1072,32,-208,-208,8243
32,,-17248,26112,-928,-16992,26208,-1072,192,-336,-208,8243
33,,-20096,24528,-880,-19808,24608,-1008,272,-432,-208,8243
34,,-22768,22320,-912,-22432,22368,-1120,320,-432,-224,8243
35,,-25312,19856,-848,-24960,19888,-992,304,-528,-192,8243
36,,-26848,16752,-768,-26496,16752,-928,384,-656,-224,8243
37,,-27568,13296,-720,-27152,13200,-784,288,-688,-208,8243
38,,-27136,9504,-656,-26768,9344,-672,320,-832,-224,8243
39,,-25712,5200,-544,-25296,4976,-592,304,-928,-224,8243
40,,-23360,352,-496,-22976,112,-544,384,-1008,-176,8243
41,,-20928,-4480,-528,-20560,-4752,-512,240,-928,-208,8243
42,,-18032,-8960,-464,-17664,-9200,-400,176,-1040,-224,8243
43,,-14368,-13232,-464,-13936,-13488,-288,80,-1040,-224,8243
44,,-10224,-16848,-448,-9888,-17184,-144,-80,-1040,-224,8243
45,,-5488,-19856,-432,-5216,-20176,-80,-144,-976,-192,8243
46,,-624,-22384,-400,-416,-22784,-16,-224,-1008,-208,8243
47,,4208,-24592,-416,4352,-25040,-32,-240,-912,-256,8243
48,,8688,-26176,-432,8752,-26624,32,-352,-880,-208,8243
49,,13040,-26848,-432,13008,-27296,0,-448,-784,-176,8243
50,,16656,-26512,-480,16544,-26944,0,-576,-608,-192,8243
51,,19504,-24864,-544,19376,-25280,-16,-656,-528,-224,8243
52,,22144,-22688,-528,21984,-23072,32,-704,-496,-192,8243
53,,24672,-20160,-576,24512,-20528,-32,-704,-416,-224,8243
54,,26256,-17120,-640,26032,-17472,-144,-800,-320,-224,8243
55,,26928,-13632,-704,26704,-13872,-240,-704,-272,-208,8243
56,,26560,-9872,-768,26304,-10032,-416,-688,-96,-192,8243
57,,25072,-5504,-880,24800,-5648,-464,-704,-48,-208,8243
58,,22768,-720,-912,22528,-784,-496,-720,48,-208,8243
59,,20288,4064,-912,20080,3968,-592,-640,0,-176,8243
60,,17392,8496,-944,17184,8384,-688,-608,64,-224,8243
61,,13680,12864,-960,13456,12864,-784,-512,80,-176,8243
62,,9616,16544,-976,9440,16496,-928,-304,80,-160,8243
63,,4880,19488,-1024,4720,19520,-1008,-240,16,-208,8243
64,,16,21952,-992,-16,22064,-1072,-192,16,-208,8243
65,,-4832,24224,-1024,-4800,24352,-1040,-144,-32,-208,8243
66,,-9280,25824,-976,-9216,25920,-1040,-64,-96,-208,8243
67,,-13584,26512,-928,-13440,26672,-1056,96,-160,-176,8243
68,,-17152,26112,-960,-16960,26224,-1008,192,-352,-208,8243
69,,-20080,24528,-880,-19856,24624,-1088,288,-432,-224,8243
70,,-22752,22352,-864,-22448,22448,-1088,352,-448,-192,8243
71,,-25232,19776,-848,-24912,19808,-1024,336,-528,-192,8243
72,,-26832,16736,-784,-26400,16704,-928,352,-624,-192,8243
73,,-27520,13280,-720,-27104,13184,-800,320,-704,-224,8243
74,,-27152,9584,-640,-26768,9408,-656,320,-864,-208,8243
75,,-25664,5248,-560,-25264,5008,-624,336,-928,-240,8243
76,,-23376,416,-512,-23008,160,-512,352,-992,-208,8243
77,,-20880,-4432,-480,-20464,-4704,-512,288,-960,-192,8243
78,,-18064,-8832,-528,-17648,-9104,-400,192,-992,-176,8243
79,,-14336,-13168,-464,-13968,-13424,-256,128,-1040,-192,8243
80,,-10256,-16800,-464,-9904,-17104,-176,-64,-1008,-224,8243
81,,-5552,-19824,-416,-5264,-20192,-80,-128,-992,-176,8243
82,,-672,-22288,-384,-448,-22656,-80,-176,-960,-208,8243
83,,4752,-24016,-368,4880,-24432,-656,384,-976,-240,8243
84,,9232,-25664,-384,9312,-26128,-1408,1056,-832,-160,8243
85,,13376,-26432,-448,13344,-26896,-1632,1168,-768,-208,8243
86,,17056,-25968,-448,16960,-26432,-2080,1472,-624,-224,8243
87,,19712,-24576,-528,19600,-24992,-2192,1552,-528,-208,8243
88,,22400,-22528,-576,22240,-22928,-2176,1440,-528,-208,8243
89,,24816,-19952,-576,24640,-20336,-2096,1360,-416,-192,8243
90,,26160,-17200,-640,25936,-17568,-1920,1040,-320,-208,8243
91,,26816,-13744,-688,26592,-13968,-1584,592,-240,-208,8243
92,,26416,-10128,-752,26176,-10352,-1296,208,-160,-224,8243
93,,24784,-5856,-832,24480,-6048,-768,-432,16,-192,8243
94,,22592,-1040,-896,22352,-1168,-400,-832,16,-208,8243
95,,20400,4160,-912,20128,4096,-544,-672,64,-192,8243
96,,17440,8448,-880,17184,8352,-688,-512,16,-208,8243
97,,13776,12800,-944,13536,12752,-688,-576,144,-192,8243
98,,9696,16496,-976,9488,16512,-896,-304,48,-208,8243
99,,4960,19328,-976,4800,19344,-992,-288,80,-208,8243
100,,176,22032,-992,112,22080,-1008,-208,32,-192,8243
101,,-4752,24144,-1024,-4736,24240,-1088,-128,-32,-208,8243
102,,-9312,25776,-976,-9216,25888,-992,-112,-112,-240,8243
103,,-13488,26496,-1008,-13296,26576,-1104,64,-144,-240,8243
104,,-17136,26128,-912,-16880,26240,-976,176,-320,-224,8243
105,,-20048,24576,-912,-19760,24672,-1056,256,-448,-240,8243
106,,-22720,22400,-864,-22400,22480,-1040,320,-432,-192,8243
107,,-25168,19824,-848,-24816,19840,-1040,352,-464,-240,8243
108,,-26816,16784,-768,-26448,16768,-880,288,-608,-208,8243
109,,-27472,13360,-720,-27040,13248,-832,336,-720,-224,8243
110,,-27216,9600,-640,-26784,9440,-656,240,-784,-208,8243
111,,-25712,5280,-560,-25344,5120,-592,320,-960,-224,8243
112,,-23504,448,-560,-23088,256,-576,288,-944,-224,8243
113,,-20912,-4320,-496,-20528,-4576,-480,288,-992,-192,8243
114,,-18064,-8784,-496,-17648,-9072,-416,176,-960,-208,8243
115,,-14416,-13008,-464,-14048,-13312,-224,112,-1040,-192,8243
116,,-10336,-16752,-448,-9968,-17072,-160,-80,-976,-224,8243
117,,-5440,-19440,-400,-5184,-19824,-256,48,-1024,-208,8243
118,,128,-21600,-384,288,-21984,-1184,976,-976,-160,8243
119,,4560,-24016,-416,4704,-24480,-1808,1504,-912,-240,8243
120,,9216,-25488,-400,9248,-25952,-2272,1872,-864,-208,8243
121,,13424,-26240,-464,13392,-26672,-2752,2304,-752,-224,8243
122,,16928,-25984,-448,16848,-26416,-2992,2416,-560,-208,8243
123,,19936,-24416,-512,19824,-24832,-3136,2480,-528,-176,8243
124,,22496,-22592,-528,22352,-22944,-3168,2464,-496,-176,8243
125,,24672,-20048,-592,24480,-20416,-2960,2128,-336,-208,8243
126,,26288,-17024,-640,26096,-17392,-2832,1904,-368,-208,8243
127,,26816,-13824,-688,26640,-14112,-2464,1456,-176,-208,8243
128,,26448,-10064,-768,26224,-10256,-2064,1008,-112,-192,8243
129,,24944,-5952,-848,24688,-6128,-1584,368,32,-192,8243
130,,22512,-1200,-896,22272,-1296,-960,-288,32,-208,8243
131,,20000,3520,-928,19760,3392,-448,-800,48,-208,8243
132,,17504,8528,-912,17248,8432,-576,-704,64,-224,8243
133,,13840,12624,-912,13584,12608,-848,-416,96,-192,8243
134,,9664,16368,-960,9456,16368,-816,-448,96,-192,8243
135,,5232,19360,-976,5040,19408,-1008,-224,48,-224,8243
136,,80,21888,-1008,0,21968,-1040,-256,80,-192,8243
137,,-4608,24160,-1008,-4608,24288,-992,-160,0,-192,8243
138,,-9168,25696,-1008,-9088,25856,-1088,-80,-48,-176,8243
139,,-13488,26368,-1008,-13296,26544,-1040,16,-144,-176,8243
140,,-17088,26176,-928,-16864,26320,-1008,96,-304,-208,8243
141,,-19936,24672,-896,-19664,24768,-1024,256,-416,-208,8243
142,,-22720,22416,-848,-22400,22496,-1072,304,-416,-224,8243
143,,-25120,19904,-848,-24784,19904,-1008,336,-528,-224,8243
144,,-26720,16752,-800,-26352,16704,-928,304,-576,-208,8243
145,,-27472,13440,-704,-27088,13360,-752,304,-656,-208,8243
146,,-27152,9696,-656,-26768,9536,-672,272,-800,-224,8243
147,,-25808,5504,-560,-25408,5248,-576,272,-880,-192,8243
148,,-23520,544,-528,-23136,320,-528,320,-960,-176,8243
149,,-21040,-4192,-464,-20672,-4464,-464,160,-928,-224,8243
150,,-18032,-8720,-480,-17632,-9008,-384,208,-992,-208,8243
151,,-14544,-12928,-464,-14160,-13248,-272,32,-944,-208,8243
152,,-10400,-16656,-416,-10048,-16960,-112,-64,-992,-192,8243
153,,-5872,-19664,-416,-5584,-20032,-64,-192,-928,-176,8243
154,,-720,-22160,-400,-512,-22560,-112,-144,-1008,-224,8243
155,,4640,-23840,-384,4736,-24224,-928,640,-864,-208,8243
156,,9008,-25584,-432,9040,-26048,-1552,1184,-816,-192,8243
157,,13184,-26320,-432,13152,-26784,-1808,1344,-768,-192,8243
158,,16928,-25984,-432,16880,-26464,-2272,1648,-576,-208,8243
159,,19584,-24752,-544,19472,-25152,-2464,1680,-496,-240,8243
160,,22400,-22528,-528,22256,-22944,-2320,1600,-496,-208,8243
161,,24624,-20192,-576,24496,-20560,-2416,1520,-336,-224,8243
162,,25968,-17168,-656,25792,-17488,-2032,1136,-288,-208,8243
163,,26816,-13872,-672,26624,-14128,-1792,832,-208,-176,8243
164,,26352,-10240,-752,26112,-10448,-1488,320,-80,-192,8243
165,,24864,-6096,-832,24592,-6192,-976,-256,0,-208,8243
166,,22592,-1312,-880,22368,-1456,-432,-832,128,-176,8243
167,,20512,3840,-864,20240,3760,-432,-800,96,-192,8243
168,,17504,8416,-912,17216,8336,-704,-576,144,-160,8243
169,,13792,12528,-960,13552,12496,-688,-576,96,-192,8243
170,,9824,16368,-960,9600,16352,-896,-432,160,-192,8243
171,,5136,19280,-992,4976,19312,-992,-272,32,-208,8243
172,,304,21920,-992,240,21968,-1024,-288,144,-224,8243
173,,-4544,24208,-976,-4528,24320,-1008,-144,16,-176,8243
174,,-9184,25584,-1008,-9056,25696,-1056,-112,-32,-208,8243
175,,-13344,26480,-960,-13232,26576,-1008,-48,-160,-160,8243
176,,-16928,26128,-944,-16720,26288,-1072,160,-272,-192,8243
177,,-19952,24672,-896,-19696,24768,-1008,176,-384,-208,8243
178,,-22624,22528,-848,-22336,22624,-1056,304,-384,-192,8243
179,,-25152,19920,-848,-24832,19952,-992,256,-480,-224,8243
180,,-26672,16768,-736,-26304,16704,-912,304,-592,-192,8243
181,,-27472,13440,-720,-27072,13360,-768,240,-640,-208,8243
182,,-27168,9760,-624,-26800,9568,-640,272,-768,-208,8243
183,,-25856,5552,-576,-25424,5264,-576,224,-832,-224,8243
184,,-23600,688,-512,-23184,464,-512,288,-976,-192,8243
185,,-21104,-4128,-512,-20704,-4416,-496,192,-864,-192,8243
186,,-18128,-8704,-496,-17792,-8976,-368,128,-1008,-256,8243
187,,-14544,-12896,-432,-14176,-13248,-272,0,-928,-272,8243
188,,-10496,-16576,-480,-10160,-16896,-96,-96,-960,-240,8243
189,,-5872,-19696,-400,-5552,-20064,-64,-272,-912,-208,8243
190,,-992,-22272,-432,-768,-22672,0,-288,-928,-208,8243
191,,3904,-24496,-400,4016,-24912,16,-304,-848,-192,8243
192,,8432,-25984,-416,8496,-26432,32,-448,-800,-208,8243
193,,12704,-26784,-416,12672,-27232,0,-496,-720,-192,8243
194,,16336,-26512,-480,16288,-26960,48,-656,-560,-176,8243
195,,19360,-25040,-496,19264,-25472,0,-720,-448,-208,8243
196,,22016,-22928,-544,21872,-23344,48,-800,-432,-192,8243
197,,24528,-20352,-576,24384,-20752,-16,-800,-336,-176,8243
198,,26096,-17248,-640,25888,-17568,-48,-832,-240,-192,8243
199,,26880,-13824,-688,26640,-14064,-192,-752,-192,-160,8243
200,,26592,-10096,-736,26336,-10304,-368,-752,-32,-192,8243
201,,25200,-5776,-848,24944,-5936,-448,-752,0,-208,8243
202,,23024,-1040,-864,22768,-1216,-480,-784,128,-192,8243
203,,20480,3824,-896,20224,3680,-528,-704,64,-208,8243
204,,17552,8224,-912,17296,8176,-672,-640,96,-192,8243
205,,13872,12608,-960,13616,12544,-752,-576,112,-192,8243
206,,9840,16288,-944,9616,16240,-912,-368,112,-224,8243
207,,5152,19296,-1008,4992,19376,-960,-288,64,-224,8243
208,,368,21888,-1024,288,21936,-1056,-256,64,-240,8243
209,,-4560,24128,-992,-4560,24240,-1008,-208,0,-240,8243
210,,-9056,25664,-976,-8976,25792,-1024,-96,-32,-176,8243
211,,-13376,26400,-976,-13200,26528,-1024,16,-128,-240,8243
212,,-16944,26096,-928,-16704,26208,-1024,128,-272,-224,8243
213,,-19920,24640,-928,-19664,24736,-1040,192,-416,-240,8243
214,,-22608,22576,-880,-22304,22640,-1104,288,-416,-192,8243
215,,-25168,19968,-848,-24784,20000,-1024,320,-464,-224,8243
216,,-26688,16864,-768,-26320,16832,-928,320,-576,-192,8243
217,,-27408,13424,-720,-27024,13312,-832,240,-656,-208,8243
218,,-27200,9776,-640,-26800,9616,-656,224,-784,-224,8243
219,,-25776,5552,-544,-25408,5312,-576,272,-880,-192,8243
220,,-23664,720,-512,-23232,432,-544,304,-960,-240,8243
221,,-21088,-4160,-496,-20736,-4432,-464,192,-912,-192,8243
222,,-18176,-8608,-464,-17776,-8896,-336,128,-944,-176,8243
223,,-14480,-12848,-480,-14144,-13184,-272,64,-928,-208,8243
224,,-10464,-16560,-416,-10176,-16880,-96,-96,-960,-208,8243
225,,-5872,-19680,-464,-5568,-20080,-64,-208,-992,-256,8243
226,,-1008,-22272,-368,-800,-22688,0,-272,-896,-192,8243
227,,3856,-24480,-416,3984,-24912,16,-288,-864,-192,8243
228,,8400,-25984,-400,8464,-26416,32,-400,-784,-144,8243
229,,12688,-26720,-448,12640,-27168,48,-528,-752,-208,8243
230,,16368,-26496,-464,16272,-26960,16,-608,-560,-208,8243
231,,19360,-25056,-512,19232,-25456,32,-688,-464,-192,8243
232,,22032,-22960,-512,21904,-23344,48,-736,-448,-192,8243
233,,24544,-20384,-560,24368,-20704,16,-816,-368,-192,8243
234,,26128,-17296,-592,25936,-17648,-144,-768,-288,-224,8243
235,,26816,-13808,-672,26576,-14064,-176,-816,-224,-192,8243
236,,26608,-10144,-720,26368,-10320,-336,-704,-80,-192,8243
237,,25200,-5792,-816,24928,-5936,-416,-768,48,-192,8243
238,,23040,-1088,-880,22832,-1232,-496,-752,32,-192,8243
239,,20480,3776,-928,20272,3680,-576,-720,64,-240,8243
240,,17600,8208,-896,17344,8128,-688,-592,48,-208,8243
241,,13872,12560,-960,13664,12480,-752,-592,160,-208,8243
242,,9872,16272,-960,9680,16304,-832,-368,80,-192,8243
243,,5216,19296,-1008,5024,19312,-992,-320,64,-208,8243
244,,400,21888,-1008,352,21984,-1024,-224,32,-224,8243
245,,-4512,24160,-1008,-4496,24256,-1040,-176,48,-208,8243
246,,-9024,25696,-1040,-8944,25792,-1040,-96,-96,-240,8243
247,,-13360,26384,-960,-13168,26512,-1088,16,-128,-208,8243
248,,-16960,26144,-992,-16752,26256,-1008,80,-336,-224,8243
249,,-19904,24640,-880,-19616,24752,-1072,240,-400,-192,8243
250,,-22656,22624,-832,-22320,22672,-1024,256,-416,-208,8243
251,,-25136,20000,-832,-24800,20048,-1040,336,-528,-224,8243
252,,-26720,16912,-736,-26400,16912,-880,288,-624,-160,8243
253,,-27392,13440,-704,-27008,13360,-800,320,-672,-208,8243
254,,-27216,9840,-656,-26816,9632,-656,208,-752,-224,8243
255,,-25824,5600,-528,-25408,5360,-560,320,-896,-192,8243
256,,-23696,768,-528,-23344,512,-528,272,-960,-224,8243
257,,-21168,-4112,-480,-20768,-4384,-496,208,-960,-224,8243
258,,-18240,-8592,-480,-17840,-8880,-384,112,-928,-240,8243
259,,-14528,-12800,-464,-14176,-13152,-240,64,-1024,-208,8243
260,,-10528,-16560,-416,-10160,-16880,-176,-96,-912,-224,8243
261,,-5904,-19568,-416,-5632,-19984,-32,-192,-960,-208,8243
262,,-1072,-22240,-416,-848,-22672,-48,-288,-928,-224,8243
263,,3808,-24480,-416,3936,-24912,48,-336,-944,-208,8243
264,,8352,-26048,-416,8432,-26528,0,-400,-768,-208,8243
265,,12624,-26688,-464,12624,-27168,80,-528,-752,-208,8243
266,,16320,-26512,-464,16256,-26944,-32,-592,-592,-192,8243
267,,19248,-24992,-544,19152,-25440,32,-752,-480,-224,8243
268,,22032,-22976,-544,21872,-23344,16,-752,-512,-192,8243
269,,24544,-20432,-560,24304,-20784,16,-848,-384,-192,8243
270,,26144,-17312,-640,25920,-17632,-128,-752,-272,-176,8243
271,,26800,-13824,-688,26560,-14128,-192,-784,-208,-160,8243
272,,26576,-10112,-752,26368,-10304,-352,-704,-112,-176,8243
273,,25216,-5840,-848,24960,-6000,-448,-784,48,-208,8243
274,,23056,-1088,-880,22832,-1184,-480,-736,-16,-208,8243
275,,20576,3712,-896,20320,3616,-544,-736,80,-208,8243
276,,17616,8208,-928,17328,8144,-656,-608,32,-192,8243
277,,13936,12544,-944,13744,12496,-784,-560,176,-192,8243
278,,9840,16224,-944,9600,16240,-864,-384,48,-208,8243
279,,5280,19248,-976,5136,19312,-960,-256,112,-176,8243
280,,400,21920,-992,320,22000,-960,-256,48,-208,8243
281,,-4448,24144,-992,-4432,24240,-1040,-160,32,-208,8243
282,,-9040,25728,-1008,-8928,25856,-1024,-64,-96,-192,8243
283,,-13296,26400,-976,-13136,26544,-1104,48,-176,-192,8243
284,,-16944,26160,-912,-16736,26256,-960,112,-272,-160,8243
285,,-19840,24704,-880,-19568,24800,-1056,256,-368,-208,8243
286,,-22656,22656,-864,-22320,22720,-1024,272,-400,-192,8243
287,,-25120,20128,-816,-24800,20160,-1040,368,-528,-192,8243
288,,-26752,17008,-768,-26368,16928,-864,320,-560,-160,8243
289,,-27424,13536,-720,-27040,13408,-800,336,-688,-208,8243
290,,-27216,9808,-656,-26832,9680,-624,192,-768,-224,8243
291,,-25856,5664,-576,-25456,5440,-592,288,-896,-192,8243
292,,-23728,768,-512,-23328,512,-544,288,-944,-224,8243
293,,-21248,-4016,-496,-20864,-4256,-464,224,-928,-208,8243
294,,-18272,-8576,-480,-17904,-8864,-384,128,-944,-208,8243
295,,-14656,-12768,-464,-14272,-13056,-240,48,-1024,-224,8243
296,,-10528,-16576,-432,-10192,-16928,-176,-80,-912,-208,8243
297,,-6000,-19568,-400,-5696,-19968,-32,-208,-1008,-224,8243
298,,-1040,-22240,-416,-800,-22656,-16,-256,-944,-160,8243
299,,3728,-24448,-416,3840,-24880,16,-304,-896,-176,8243
300,,8400,-26048,-384,8480,-26496,-48,-336,-800,-192,8243
301,,12880,-26432,-416,12880,-26896,-240,-224,-720,-192,8243
302,,16752,-26112,-448,16688,-26576,-864,240,-560,-176,8243
303,,19376,-24848,-496,19296,-25312,-960,256,-464,-192,8243
304,,22192,-22800,-560,22048,-23216,-1040,288,-512,-208,8243
305,,24496,-20496,-544,24336,-20848,-992,192,-304,-208,8243
306,,26032,-17424,-608,25808,-17744,-832,-80,-288,-176,8243
307,,26624,-14096,-672,26400,-14384,-560,-400,-176,-192,8243
308,,26304,-10432,-768,26064,-10624,-352,-768,-96,-208,8243
309,,25280,-5904,-800,25024,-6048,-352,-864,48,-192,8243
310,,23104,-976,-896,22816,-1104,-544,-720,32,-208,8243
311,,20592,3600,-912,20304,3488,-512,-752,48,-208,8243
312,,17648,8208,-928,17392,8144,-656,-640,64,-224,8243
313,,13968,12416,-928,13760,12352,-752,-496,112,-192,8243
314,,9856,16192,-960,9648,16256,-848,-432,80,-208,8243
315,,5360,19264,-992,5168,19264,-1008,-256,96,-208,8243
316,,384,21840,-992,320,21936,-992,-256,80,-192,8243
317,,-4384,24112,-1008,-4416,24224,-1040,-224,16,-224,8243
318,,-9024,25792,-960,-8944,25888,-1072,-80,-48,-192,8243
319,,-13232,26448,-976,-13072,26544,-1072,16,-160,-208,8243
320,,-16896,26128,-944,-16672,26224,-1024,96,-272,-208,8243
321,,-19808,24656,-912,-19520,24752,-1040,240,-416,-208,8243
322,,-22624,22608,-880,-22304,22688,-1056,272,-400,-224,8243
323,,-25136,20160,-832,-24800,20192,-992,320,-480,-192,8243
324,,-26752,16976,-768,-26384,16960,-912,336,-592,-176,8243
325,,-27424,13536,-720,-27040,13440,-784,288,-672,-192,8243
