,=02.06HC1205 转运站除尘风机,2000
8,7A,1D
1,UAB,,,V ,0.00587544065804935,0,0,-2048,2047,1,1,S
2,UBC,,,V ,0.00580720092915215,0,0,-2048,2047,1,1,S
3,3U0,,,V ,0.00593824228028504,0,0,-2048,2047,1,1,S
4,IA,,,A ,0.00440334654337296,0,0,-2048,2047,1,1,S
5,IB,,,A ,0.0043917435221783,0,0,-2048,2047,1,1,S
6,IC,,,A ,0.0043917435221783,0,0,-2048,2047,1,1,S
7,3I0,,,A ,0.00109649122807018,0,0,-2048,2047,1,1,S
1,DI,,,1
0
1
1800,3744
16/06/2018,05:25:27.182000
16/06/2018,05:25:27.262000
ASCII
1
1,,-6304,22352,-1408,-208,-2768,-1424,-1488,8195
2,,-10608,23072,-1168,-416,-2400,-1616,-1536,8195
3,,-14368,23216,-1392,-384,-1536,-2464,-1488,8195
4,,-18192,23152,-1440,-112,-1488,-2784,-1456,8195
5,,-21552,22064,-1504,32,-1488,-2928,-1472,8195
6,,-23824,20048,-1440,16,-1472,-2928,-1456,8195
7,,-25280,17440,-1440,-144,-1472,-2768,-1472,8195
8,,-26160,13936,-1616,-480,-1392,-2496,-1392,8195
9,,-26176,10112,-1488,-1312,-560,-2528,-1456,8195
10,,-26224,6352,-1520,-1456,-192,-2768,-1472,8195
11,,-25088,1872,-1392,-1472,-32,-2912,-1440,8195
12,,-23120,-2384,-1424,-1488,-32,-2880,-1456,8195
13,,-20544,-6416,-1440,-1472,-192,-2704,-1440,8195
14,,-16992,-10784,-1216,-1632,-432,-2352,-1504,8195
15,,-13328,-14576,-1408,-2464,-416,-1504,-1456,8195
16,,-9584,-18320,-1440,-2800,-128,-1440,-1424,8195
17,,-5168,-21712,-1520,-2960,0,-1424,-1440,8195
18,,-1024,-23952,-1472,-2944,-16,-1424,-1440,8195
19,,2976,-25376,-1472,-2784,-176,-1424,-1440,8195
20,,7296,-26128,-1728,-2560,-544,-1200,-1376,8195
21,,10992,-26288,-1488,-2608,-1408,-368,-1440,8195
22,,14720,-26208,-1456,-2880,-1488,-48,-1472,8195
23,,18064,-25104,-1376,-3024,-1472,112,-1456,8195
24,,20352,-23120,-1440,-3008,-1472,96,-1472,8195
25,,21888,-20496,-1440,-2832,-1472,-64,-1456,8195
26,,22752,-16976,-1264,-2480,-1568,-320,-1536,8195
27,,22752,-13200,-1376,-1648,-2416,-288,-1472,8195
28,,22816,-9424,-1360,-1520,-2784,-64,-1456,8195
29,,21664,-4944,-1488,-1472,-2960,64,-1472,8195
30,,19680,-704,-1456,-1488,-2944,48,-1472,8195
31,,17104,3376,-1456,-1488,-2800,-128,-1456,8195
32,,13600,7728,-1680,-1328,-2560,-480,-1424,8195
33,,9936,11536,-1488,-496,-2576,-1312,-1472,8195
34,,6240,15312,-1440,-160,-2848,-1376,-1504,8195
35,,1840,18640,-1360,0,-2976,-1424,-1504,8195
36,,-2288,20880,-1408,-16,-2976,-1424,-1488,8195
37,,-6320,22336,-1424,-176,-2800,-1424,-1488,8195
38,,-10624,23088,-1152,-384,-2400,-1632,-1552,8195
39,,-14368,23216,-1392,-368,-1568,-2464,-1488,8195
40,,-18192,23152,-1440,-96,-1504,-2800,-1440,8195
41,,-21552,22032,-1488,48,-1488,-2944,-1472,8195
42,,-23808,20032,-1440,16,-1488,-2928,-1456,8195
43,,-25280,17408,-1440,-144,-1472,-2768,-1456,8195
44,,-26160,13904,-1616,-480,-1376,-2512,-1392,8195
45,,-26160,10128,-1472,-1296,-560,-2512,-1456,8195
46,,-26208,6320,-1504,-1456,-176,-2752,-1456,8195
47,,-25072,1856,-1408,-1472,-16,-2896,-1440,8195
48,,-23088,-2368,-1408,-1472,-16,-2880,-1440,8195
49,,-20496,-6432,-1424,-1472,-176,-2720,-1440,8195
50,,-16976,-10784,-1200,-1616,-400,-2368,-1520,8195
51,,-13280,-14592,-1392,-2496,-400,-1520,-1456,8195
52,,-9568,-18352,-1440,-2816,-112,-1440,-1424,8195
53,,-5152,-21696,-1520,-2960,0,-1424,-1456,8195
54,,-1008,-23920,-1488,-2960,-16,-1424,-1424,8195
55,,2992,-25392,-1456,-2800,-176,-1408,-1440,8195
56,,7312,-26144,-1728,-2576,-544,-1216,-1376,8195
57,,11024,-26256,-1488,-2608,-1392,-368,-1424,8195
58,,14752,-26192,-1440,-2880,-1472,-32,-1472,8195
59,,18048,-25120,-1408,-3024,-1488,96,-1472,8195
60,,20400,-23104,-1424,-2992,-1472,96,-1456,8195
61,,21856,-20464,-1456,-2848,-1488,-64,-1456,8195
62,,22736,-16976,-1264,-2496,-1584,-320,-1520,8195
63,,22752,-13184,-1376,-1648,-2416,-320,-1472,8195
64,,22832,-9408,-1360,-1504,-2784,-64,-1456,8195
65,,21632,-4896,-1488,-1472,-2944,80,-1472,8195
66,,19664,-688,-1472,-1488,-2960,48,-1488,8195
67,,17104,3376,-1456,-1472,-2784,-112,-1472,8195
68,,13552,7744,-1680,-1344,-2544,-480,-1408,8195
69,,9936,11568,-1456,-512,-2576,-1328,-1472,8195
70,,6256,15264,-1440,-160,-2848,-1392,-1488,8195
71,,1824,18672,-1360,0,-2976,-1424,-1488,8195
72,,-2320,20880,-1392,-16,-2960,-1424,-1472,8195
73,,-6304,22336,-1424,-176,-2800,-1408,-1488,8195
74,,-10624,23104,-1168,-384,-2416,-1616,-1536,8195
75,,-14368,23200,-1408,-384,-1552,-2464,-1504,8195
76,,-18192,23152,-1440,-96,-1488,-2800,-1440,8195
77,,-21568,22048,-1504,48,-1472,-2944,-1456,8195
78,,-23824,20048,-1456,32,-1472,-2928,-1456,8195
79,,-25264,17408,-1440,-128,-1472,-2768,-1472,8195
80,,-26160,13904,-1632,-464,-1376,-2528,-1392,8195
81,,-26144,10128,-1488,-1312,-528,-2528,-1456,8195
82,,-26208,6336,-1520,-1456,-176,-2784,-1472,8195
83,,-25056,1856,-1392,-1472,-16,-2896,-1456,8195
84,,-23120,-2368,-1424,-1488,-16,-2880,-1440,8195
85,,-20512,-6448,-1440,-1488,-192,-2736,-1456,8195
86,,-16960,-10800,-1200,-1616,-400,-2352,-1504,8195
87,,-13312,-14576,-1408,-2480,-400,-1520,-1440,8195
88,,-9552,-18336,-1456,-2816,-128,-1440,-1424,8195
89,,-5120,-21712,-1536,-2976,0,-1424,-1424,8195
90,,-1008,-23952,-1472,-2960,0,-1424,-1440,8195
91,,2976,-25392,-1472,-2800,-176,-1408,-1440,8195
92,,7328,-26144,-1728,-2592,-560,-1200,-1376,8195
93,,11040,-26272,-1488,-2608,-1392,-368,-1440,8195
94,,14720,-26192,-1456,-2896,-1456,-32,-1488,8195
95,,18080,-25088,-1392,-3008,-1488,96,-1472,8195
96,,20384,-23104,-1440,-3008,-1488,80,-1472,8195
97,,21856,-20480,-1456,-2848,-1488,-64,-1472,8195
98,,22736,-16928,-1264,-2496,-1568,-320,-1520,8195
99,,22768,-13168,-1376,-1648,-2416,-304,-1472,8195
100,,22800,-9392,-1360,-1504,-2800,-48,-1456,8195
101,,21648,-4896,-1488,-1488,-2944,80,-1472,8195
102,,19680,-672,-1456,-1472,-2960,48,-1472,8195
103,,17072,3376,-1440,-1472,-2800,-128,-1472,8195
104,,13536,7760,-1696,-1344,-2560,-480,-1440,8195
105,,9920,11568,-1472,-496,-2592,-1328,-1472,8195
106,,6224,15280,-1440,-144,-2848,-1392,-1488,8195
107,,1824,18720,-1360,0,-2992,-1408,-1488,8195
108,,-2320,20880,-1408,0,-2960,-1424,-1488,8195
109,,-6320,22336,-1392,-176,-2800,-1424,-1488,8195
110,,-10656,23072,-1152,-384,-2416,-1616,-1536,8195
111,,-14384,23248,-1424,-352,-1568,-2464,-1504,8195
112,,-18160,23136,-1440,-80,-1504,-2800,-1440,8195
113,,-21616,22016,-1504,48,-1472,-2960,-1456,8195
114,,-23840,20048,-1440,32,-1488,-2944,-1472,8195
115,,-25248,17408,-1440,-128,-1472,-2784,-1472,8195
116,,-26096,13824,-1680,-512,-1328,-2560,-1392,8195
117,,-26192,10128,-1456,-1344,-464,-2576,-1456,8195
118,,-26176,6352,-1488,-1456,-96,-2816,-1456,8195
119,,-25072,1824,-1376,-1472,32,-2976,-1472,8195
120,,-23088,-2384,-1424,-1488,48,-2928,-1440,8195
121,,-20496,-6448,-1424,-1488,-128,-2784,-1440,8195
122,,-16896,-10848,-1184,-1712,-336,-2368,-1520,8195
123,,-13280,-14608,-1440,-2576,-320,-1520,-1440,8195
124,,-9568,-18336,-1440,-2896,-32,-1440,-1408,8195
125,,-5120,-21744,-1520,-3040,96,-1408,-1440,8195
126,,-1008,-23968,-1472,-3024,80,-1408,-1440,8195
127,,3008,-25376,-1472,-2864,-96,-1408,-1440,8195
128,,7296,-26080,-1696,-2720,-528,-1152,-1392,8195
129,,11024,-26272,-1472,-2720,-1376,-304,-1440,8195
130,,14752,-26224,-1488,-2992,-1472,48,-1472,8195
131,,18080,-25104,-1392,-3120,-1472,208,-1456,8195
132,,20400,-23120,-1424,-3088,-1488,176,-1456,8195
133,,21824,-20448,-1424,-2928,-1488,32,-1456,8195
134,,22688,-16848,-1200,-2544,-1648,-192,-1520,8195
135,,22768,-13184,-1408,-1696,-2512,-176,-1472,8195
136,,22800,-9376,-1328,-1504,-2896,48,-1472,8195
137,,21648,-4912,-1472,-1472,-3056,160,-1472,8195
138,,19680,-656,-1456,-1472,-3056,128,-1472,8195
139,,17056,3376,-1456,-1472,-2880,-32,-1472,8195
140,,13472,7776,-1728,-1248,-2672,-432,-1424,8195
141,,9904,11568,-1472,-416,-2704,-1280,-1488,8195
142,,6224,15312,-1488,-64,-2960,-1408,-1504,8195
143,,1776,18704,-1376,96,-3088,-1408,-1504,8195
144,,-2320,20896,-1392,96,-3040,-1424,-1472,8195
145,,-6320,22336,-1424,-80,-2880,-1424,-1472,8195
146,,-10672,23024,-1168,-240,-2464,-1680,-1536,8195
147,,-14368,23200,-1424,-240,-1600,-2560,-1488,8195
148,,-18192,23168,-1392,32,-1488,-2896,-1440,8195
149,,-21600,22016,-1472,160,-1488,-3056,-1456,8195
150,,-23856,20048,-1456,128,-1472,-3040,-1472,8195
151,,-25232,17376,-1440,-48,-1472,-2864,-1456,8195
152,,-26064,13776,-1680,-416,-1312,-2656,-1424,8195
153,,-26192,10112,-1472,-1280,-448,-2640,-1456,8195
154,,-26208,6320,-1584,-1456,-80,-2896,-1456,8195
155,,-25056,1824,-1408,-1488,80,-3008,-1440,8195
156,,-23136,-2400,-1424,-1488,80,-2976,-1440,8195
157,,-20480,-6448,-1424,-1488,-80,-2800,-1440,8195
158,,-16848,-10848,-1168,-1712,-304,-2416,-1504,8195
159,,-13296,-14592,-1424,-2576,-272,-1568,-1456,8195
160,,-9536,-18400,-1408,-2896,0,-1440,-1424,8195
161,,-5104,-21760,-1504,-3072,112,-1408,-1440,8195
162,,-1008,-23968,-1472,-3056,96,-1424,-1440,8195
163,,3008,-25408,-1472,-2896,-80,-1424,-1440,8195
164,,7328,-26064,-1712,-2720,-512,-1136,-1392,8195
165,,11024,-26240,-1472,-2752,-1360,-272,-1440,8195
166,,14784,-26224,-1488,-2992,-1456,80,-1456,8195
167,,18128,-25104,-1392,-3120,-1488,208,-1472,8195
168,,20400,-23104,-1440,-3104,-1488,208,-1440,8195
169,,21856,-20464,-1456,-2944,-1488,16,-1472,8195
170,,22672,-16848,-1216,-2560,-1664,-192,-1520,8195
171,,22736,-13168,-1440,-1696,-2512,-176,-1472,8195
172,,22816,-9376,-1296,-1504,-2896,48,-1472,8195
173,,21648,-4864,-1472,-1488,-3056,160,-1472,8195
174,,19680,-672,-1456,-1488,-3040,144,-1488,8195
175,,17056,3376,-1456,-1472,-2880,0,-1472,8195
176,,13472,7744,-1712,-1264,-2688,-432,-1408,8195
177,,9888,11568,-1456,-400,-2704,-1280,-1488,8195
178,,6208,15312,-1488,-48,-2960,-1392,-1504,8195
179,,1808,18688,-1376,96,-3104,-1408,-1504,8195
180,,-2352,20896,-1424,80,-3072,-1424,-1488,8195
181,,-6336,22320,-1424,-96,-2912,-1408,-1488,8195
182,,-10624,23024,-1168,-240,-2464,-1696,-1536,8195
183,,-14384,23200,-1424,-240,-1600,-2576,-1504,8195
184,,-18224,23168,-1408,32,-1520,-2896,-1456,8195
185,,-21584,22016,-1488,160,-1488,-3056,-1456,8195
186,,-23856,20048,-1456,128,-1488,-3040,-1472,8195
187,,-25280,17392,-1440,-32,-1504,-2880,-1488,8195
188,,-26032,13760,-1696,-416,-1296,-2656,-1424,8195
189,,-26144,10080,-1472,-1280,-464,-2672,-1456,8195
190,,-26240,6336,-1584,-1472,-80,-2896,-1472,8195
191,,-25056,1776,-1408,-1472,96,-3008,-1456,8195
192,,-23088,-2416,-1424,-1472,80,-2992,-1456,8195
193,,-20496,-6432,-1440,-1488,-80,-2816,-1456,8195
194,,-16880,-10832,-1184,-1712,-288,-2416,-1520,8195
195,,-13248,-14640,-1440,-2576,-256,-1552,-1456,8195
196,,-9536,-18368,-1408,-2928,-16,-1424,-1424,8195
197,,-5120,-21744,-1504,-3072,128,-1424,-1456,8195
198,,-976,-24000,-1488,-3088,80,-1408,-1440,8195
199,,3008,-25360,-1456,-2896,-80,-1424,-1440,8195
200,,7312,-26064,-1712,-2736,-528,-1136,-1392,8195
201,,11040,-26272,-1456,-2736,-1360,-272,-1440,8195
202,,14784,-26208,-1488,-2992,-1456,64,-1472,8195
203,,18080,-25088,-1392,-3136,-1472,224,-1456,8195
204,,20400,-23104,-1440,-3104,-1488,192,-1472,8195
205,,21856,-20464,-1456,-2944,-1488,16,-1456,8195
206,,22624,-16816,-1200,-2544,-1664,-192,-1536,8195
207,,22752,-13152,-1424,-1696,-2528,-176,-1472,8195
208,,22816,-9360,-1312,-1504,-2912,32,-1472,8195
209,,21600,-4864,-1488,-1504,-3072,160,-1488,8195
210,,19648,-640,-1456,-1472,-3056,144,-1488,8195
211,,17072,3408,-1456,-1488,-2896,-16,-1472,8195
212,,13440,7760,-1712,-1248,-2688,-416,-1408,8195
213,,9872,11584,-1440,-400,-2720,-1280,-1472,8195
214,,6208,15328,-1488,-48,-2960,-1408,-1520,8195
215,,1792,18704,-1376,112,-3088,-1408,-1504,8195
216,,-2336,20896,-1392,96,-3072,-1424,-1488,8195
217,,-6368,22336,-1424,-96,-2912,-1424,-1504,8195
218,,-10624,23008,-1168,-240,-2448,-1680,-1536,8195
219,,-14416,23200,-1424,-224,-1600,-2560,-1488,8195
220,,-18256,23168,-1392,32,-1504,-2912,-1456,8195
221,,-21584,22032,-1488,160,-1472,-3072,-1456,8195
222,,-23872,20048,-1440,128,-1488,-3056,-1472,8195
223,,-25280,17392,-1440,-32,-1472,-2880,-1472,8195
224,,-26032,13776,-1680,-416,-1296,-2656,-1408,8195
225,,-26160,10080,-1456,-1264,-448,-2656,-1440,8195
226,,-26224,6288,-1568,-1456,-80,-2896,-1456,8195
227,,-25040,1808,-1408,-1488,112,-3024,-1440,8195
228,,-23088,-2416,-1440,-1504,80,-3008,-1440,8195
229,,-20496,-6464,-1440,-1488,-96,-2816,-1440,8195
230,,-16848,-10832,-1168,-1712,-256,-2400,-1520,8195
231,,-13264,-14608,-1440,-2576,-256,-1552,-1456,8195
232,,-9520,-18384,-1408,-2912,0,-1440,-1424,8195
233,,-5088,-21760,-1504,-3104,128,-1424,-1424,8195
234,,-992,-23984,-1472,-3072,112,-1408,-1440,8195
235,,3024,-25408,-1472,-2912,-80,-1408,-1456,8195
236,,7328,-26064,-1712,-2720,-512,-1120,-1408,8195
237,,11040,-26256,-1456,-2752,-1360,-272,-1440,8195
238,,14784,-26240,-1488,-2992,-1456,64,-1472,8195
239,,18080,-25072,-1392,-3136,-1472,224,-1456,8195
240,,20416,-23088,-1440,-3120,-1488,192,-1456,8195
241,,21856,-20464,-1440,-2928,-1472,32,-1456,8195
242,,22656,-16832,-1200,-2560,-1664,-192,-1536,8195
243,,22736,-13136,-1408,-1696,-2512,-176,-1456,8195
244,,22816,-9344,-1312,-1488,-2912,48,-1472,8195
245,,21632,-4896,-1456,-1488,-3056,192,-1472,8195
246,,19648,-640,-1456,-1472,-3056,144,-1472,8195
247,,17056,3408,-1440,-1472,-2880,-16,-1472,8195
248,,13456,7760,-1712,-1248,-2704,-432,-1424,8195
249,,9904,11584,-1456,-384,-2704,-1280,-1488,8195
250,,6160,15344,-1488,-48,-2976,-1392,-1504,8195
251,,1776,18688,-1360,96,-3104,-1424,-1504,8195
252,,-2336,20896,-1408,96,-3072,-1424,-1488,8195
253,,-6384,22368,-1424,-96,-2896,-1424,-1488,8195
254,,-10656,23024,-1168,-224,-2464,-1696,-1520,8195
255,,-14400,23200,-1424,-224,-1600,-2576,-1488,8195
256,,-18256,23136,-1392,48,-1488,-2912,-1456,8195
257,,-21600,22000,-1488,176,-1488,-3056,-1456,8195
258,,-23840,20032,-1456,144,-1488,-3056,-1472,8195
259,,-25296,17376,-1440,-32,-1488,-2864,-1472,8195
260,,-26000,13728,-1680,-448,-1216,-2688,-1408,8195
261,,-26144,10064,-1456,-1312,-384,-2704,-1440,8195
262,,-26192,6256,-1536,-1440,16,-2960,-1472,8195
263,,-25056,1776,-1392,-1472,160,-3088,-1456,8195
264,,-23056,-2416,-1424,-1488,144,-3072,-1440,8195
265,,-20464,-6496,-1440,-1488,-32,-2896,-1440,8195
266,,-16832,-10832,-1184,-1792,-160,-2416,-1488,8195
267,,-13248,-14624,-1472,-2656,-160,-1568,-1456,8195
268,,-9488,-18432,-1392,-3008,96,-1456,-1440,8195
269,,-5104,-21744,-1504,-3152,208,-1424,-1424,8195
270,,-960,-23984,-1472,-3152,192,-1408,-1440,8195
271,,3072,-25392,-1472,-2976,32,-1408,-1456,8195
272,,7312,-26032,-1728,-2848,-480,-1040,-1392,8195
273,,11040,-26272,-1440,-2880,-1328,-176,-1440,8195
274,,14848,-26224,-1536,-3104,-1472,160,-1472,8195
275,,18096,-25072,-1424,-3248,-1472,320,-1472,8195
276,,20416,-23104,-1456,-3216,-1488,304,-1456,8195
277,,21856,-20432,-1440,-3040,-1488,128,-1456,8195
278,,22624,-16768,-1184,-2592,-1760,-48,-1504,8195
279,,22752,-13152,-1440,-1744,-2608,-32,-1472,8195
280,,22832,-9360,-1264,-1504,-3008,160,-1472,8195
281,,21632,-4848,-1472,-1488,-3168,304,-1488,8195
282,,19680,-640,-1456,-1472,-3168,256,-1488,8195
283,,17040,3424,-1440,-1472,-2992,80,-1472,8195
284,,13424,7792,-1696,-1168,-2848,-368,-1424,8195
285,,9872,11568,-1440,-304,-2864,-1232,-1488,8195
286,,6176,15408,-1536,64,-3072,-1392,-1520,8195
287,,1760,18720,-1392,224,-3216,-1408,-1488,8195
288,,-2352,20912,-1408,192,-3184,-1424,-1488,8195
289,,-6368,22336,-1408,32,-2992,-1408,-1488,8195
290,,-10656,23008,-1168,-80,-2512,-1808,-1536,8195
291,,-14400,23184,-1440,-80,-1664,-2672,-1504,8195
292,,-18320,23184,-1360,160,-1504,-3008,-1456,8195
293,,-21616,22048,-1472,288,-1488,-3168,-1472,8195
294,,-23840,20048,-1440,240,-1488,-3168,-1488,8195
295,,-25264,17344,-1440,80,-1504,-2976,-1456,8195
296,,-26032,13712,-1696,-368,-1200,-2800,-1408,8195
297,,-26160,10080,-1440,-1232,-368,-2832,-1456,8195
298,,-26256,6256,-1616,-1472,48,-3024,-1440,8195
299,,-25056,1760,-1424,-1472,208,-3120,-1440,8195
300,,-23088,-2400,-1424,-1504,192,-3088,-1440,8195
301,,-20448,-6496,-1440,-1488,16,-2928,-1456,8195
302,,-16800,-10864,-1184,-1808,-128,-2464,-1488,8195
303,,-13248,-14624,-1456,-2656,-112,-1616,-1456,8195
304,,-9488,-18448,-1344,-3040,128,-1440,-1440,8195
305,,-5072,-21792,-1504,-3216,240,-1440,-1440,8195
306,,-944,-23968,-1488,-3184,208,-1424,-1456,8195
307,,3072,-25424,-1472,-3008,32,-1408,-1456,8195
308,,7328,-26048,-1728,-2880,-432,-1040,-1408,8195
309,,11072,-26256,-1424,-2880,-1312,-176,-1440,8195
310,,14864,-26256,-1552,-3136,-1472,176,-1472,8195
311,,18128,-25072,-1408,-3264,-1488,320,-1456,8195
312,,20400,-23072,-1440,-3216,-1472,320,-1456,8195
313,,21856,-20416,-1440,-3056,-1488,128,-1456,8195
314,,22624,-16768,-1200,-2592,-1760,-32,-1504,8195
315,,22752,-13120,-1456,-1728,-2608,-32,-1472,8195
316,,22832,-9312,-1248,-1504,-3040,160,-1472,8195
317,,21648,-4832,-1440,-1472,-3184,288,-1488,8195
318,,19648,-640,-1456,-1472,-3184,240,-1472,8195
319,,17024,3440,-1472,-1472,-3008,80,-1488,8195
320,,13392,7792,-1712,-1152,-2864,-384,-1440,8195
321,,9872,11600,-1440,-304,-2880,-1232,-1488,8195
322,,6160,15408,-1520,64,-3104,-1392,-1504,8195
323,,1744,18736,-1392,224,-3216,-1424,-1504,8195
324,,-2384,20944,-1392,192,-3184,-1424,-1488,8195
325,,-6384,22352,-1408,32,-2976,-1408,-1504,8195
326,,-10672,22992,-1168,-80,-2512,-1808,-1536,8195
327,,-14400,23200,-1456,-64,-1664,-2656,-1488,8195
328,,-18288,23184,-1328,160,-1504,-3024,-1456,8195
329,,-21616,22016,-1488,288,-1504,-3168,-1472,8195
330,,-23872,20032,-1456,256,-1472,-3152,-1472,8195
331,,-25264,17376,-1424,80,-1472,-2992,-1472,8195
332,,-26000,13696,-1712,-368,-1200,-2816,-1424,8195
333,,-26144,10064,-1440,-1232,-352,-2832,-1456,8195
334,,-26272,6272,-1616,-1456,48,-3024,-1440,8195
335,,-25040,1776,-1408,-1488,208,-3136,-1472,8195
336,,-23072,-2416,-1408,-1488,192,-3104,-1440,8195
337,,-20448,-6496,-1424,-1488,16,-2912,-1440,8195
338,,-16816,-10848,-1184,-1808,-128,-2464,-1488,8195
339,,-13232,-14624,-1456,-2672,-96,-1600,-1440,8195
340,,-9488,-18448,-1360,-3040,112,-1440,-1424,8195
341,,-5088,-21808,-1504,-3200,240,-1424,-1440,8195
342,,-960,-24000,-1488,-3184,208,-1424,-1440,8195
343,,3056,-25376,-1472,-3008,32,-1424,-1440,8195
344,,7328,-26048,-1728,-2880,-464,-1040,-1392,8195
345,,11088,-26256,-1440,-2896,-1312,-176,-1440,8195
346,,14848,-26224,-1552,-3120,-1440,192,-1472,8195
347,,18128,-25088,-1424,-3248,-1472,336,-1456,8195
348,,20416,-23088,-1440,-3232,-1472,320,-1456,8195
349,,21856,-20400,-1440,-3040,-1488,128,-1472,8195
350,,22608,-16752,-1184,-2592,-1760,-32,-1504,8195
351,,22768,-13136,-1456,-1728,-2624,-16,-1472,8195
352,,22832,-9312,-1248,-1520,-3024,160,-1488,8195
353,,21616,-4832,-1456,-1472,-3200,288,-1488,8195
354,,19632,-640,-1456,-1472,-3168,256,-1472,8195
355,,17024,3440,-1456,-1472,-2992,96,-1472,8195
356,,13392,7792,-1712,-1152,-2864,-384,-1456,8195
357,,9856,11600,-1440,-304,-2880,-1232,-1488,8195
358,,6144,15408,-1520,64,-3104,-1392,-1488,8195
359,,1744,18752,-1392,224,-3216,-1408,-1488,8195
360,,-2384,20912,-1408,208,-3184,-1408,-1488,8195
361,,-6400,22320,-1424,32,-3024,-1424,-1488,8195
362,,-10672,22992,-1184,-80,-2528,-1808,-1520,8195
363,,-14448,23184,-1440,-80,-1648,-2688,-1504,8195
364,,-18304,23184,-1344,160,-1504,-3024,-1440,8195
365,,-21648,22016,-1472,288,-1488,-3168,-1472,8195
366,,-23920,20032,-1456,256,-1488,-3152,-1472,8195
367,,-25248,17328,-1440,64,-1488,-2992,-1472,8195
368,,-26016,13680,-1696,-368,-1216,-2816,-1408,8195
369,,-26160,10048,-1440,-1200,-352,-2816,-1456,8195
370,,-26240,6224,-1632,-1456,64,-3008,-1456,8195
371,,-25056,1760,-1424,-1472,224,-3120,-1440,8195
372,,-23088,-2464,-1424,-1472,192,-3104,-1440,8195
373,,-20432,-6496,-1424,-1488,16,-2928,-1456,8195
374,,-16768,-10880,-1184,-1808,-112,-2448,-1488,8195
375,,-13232,-14656,-1456,-2688,-112,-1600,-1456,8195
376,,-9472,-18464,-1344,-3040,128,-1440,-1440,8195
377,,-5056,-21808,-1504,-3200,240,-1408,-1424,8195
378,,-928,-24016,-1488,-3200,208,-1424,-1456,8195
379,,3056,-25392,-1472,-2992,32,-1424,-1456,8195
